!Agilent Technologies,E5071B,MY42403545,A.09.10
!Date: Thu Jul 11 06:42:53 2019
!Data & Calibration Information:
!Freq	S11:SOLT3(ON)	S12:SOLT3(ON)	S13:SOLT3(ON)
!	S21:SOLT3(ON)	S22:SOLT3(ON)	S23:SOLT3(ON)
!	S31:SOLT3(ON)	S32:SOLT3(ON)	S33:SOLT3(ON)
# Hz S dB R 50
3500000000	-5.946304e+000	8.304511e-001	-6.901998e+000	1.188154e+002	-5.143413e+000	-4.416440e+001
	-6.932627e+000	1.187291e+002	-6.795583e+000	4.712962e+000	-4.515279e+000	-4.553886e+001
	-5.137055e+000	-4.397856e+001	-4.509748e+000	-4.553079e+001	-6.069708e+000	3.061955e+001
3505000000	-5.954176e+000	-3.157946e-002	-6.856751e+000	1.180895e+002	-5.144800e+000	-4.465471e+001
	-6.886000e+000	1.180013e+002	-6.814174e+000	3.846956e+000	-4.512973e+000	-4.608894e+001
	-5.138023e+000	-4.448407e+001	-4.507604e+000	-4.608516e+001	-6.075689e+000	3.009240e+001
3510000000	-5.964320e+000	-8.948735e-001	-6.813707e+000	1.173477e+002	-5.147624e+000	-4.514948e+001
	-6.841921e+000	1.172590e+002	-6.835385e+000	2.974684e+000	-4.511217e+000	-4.664565e+001
	-5.139837e+000	-4.499013e+001	-4.504733e+000	-4.664305e+001	-6.077240e+000	2.953790e+001
3515000000	-5.977503e+000	-1.742717e+000	-6.774413e+000	1.165958e+002	-5.148966e+000	-4.564996e+001
	-6.800917e+000	1.165040e+002	-6.857790e+000	2.117376e+000	-4.509330e+000	-4.720926e+001
	-5.141267e+000	-4.549577e+001	-4.503339e+000	-4.720167e+001	-6.081516e+000	2.899932e+001
3520000000	-5.992134e+000	-2.570872e+000	-6.739293e+000	1.158342e+002	-5.150046e+000	-4.615578e+001
	-6.765130e+000	1.157451e+002	-6.883353e+000	1.288288e+000	-4.508408e+000	-4.778418e+001
	-5.143002e+000	-4.600878e+001	-4.501884e+000	-4.777250e+001	-6.085284e+000	2.845176e+001
3525000000	-6.006998e+000	-3.355211e+000	-6.709070e+000	1.150968e+002	-5.150775e+000	-4.666633e+001
	-6.734606e+000	1.150075e+002	-6.905397e+000	4.877782e-001	-4.507370e+000	-4.835424e+001
	-5.144548e+000	-4.651660e+001	-4.500386e+000	-4.833772e+001	-6.088665e+000	2.790953e+001
3530000000	-6.018138e+000	-4.080605e+000	-6.682228e+000	1.144115e+002	-5.150827e+000	-4.718062e+001
	-6.707117e+000	1.143240e+002	-6.922005e+000	-2.781616e-001	-4.505916e+000	-4.892425e+001
	-5.145519e+000	-4.703888e+001	-4.499162e+000	-4.890509e+001	-6.092532e+000	2.735880e+001
3535000000	-6.019987e+000	-4.798486e+000	-6.650866e+000	1.137967e+002	-5.151681e+000	-4.769279e+001
	-6.674229e+000	1.137079e+002	-6.929332e+000	-1.051466e+000	-4.504961e+000	-4.948936e+001
	-5.146675e+000	-4.755543e+001	-4.496750e+000	-4.946867e+001	-6.096982e+000	2.680585e+001
3540000000	-6.010352e+000	-5.540841e+000	-6.608849e+000	1.132119e+002	-5.152910e+000	-4.820390e+001
	-6.631080e+000	1.131181e+002	-6.929627e+000	-1.885793e+000	-4.503158e+000	-5.004637e+001
	-5.149304e+000	-4.806908e+001	-4.494792e+000	-5.002589e+001	-6.101766e+000	2.626090e+001
3545000000	-6.000239e+000	-6.363140e+000	-6.555882e+000	1.126136e+002	-5.153657e+000	-4.870877e+001
	-6.578226e+000	1.125176e+002	-6.930137e+000	-2.792712e+000	-4.500564e+000	-5.060409e+001
	-5.150221e+000	-4.857357e+001	-4.490920e+000	-5.057791e+001	-6.107255e+000	2.570480e+001
3550000000	-5.992377e+000	-7.232344e+000	-6.498207e+000	1.119670e+002	-5.154052e+000	-4.920068e+001
	-6.519177e+000	1.118741e+002	-6.935639e+000	-3.756866e+000	-4.497294e+000	-5.115255e+001
	-5.152523e+000	-4.906745e+001	-4.487732e+000	-5.112926e+001	-6.113590e+000	2.514857e+001
3555000000	-5.990398e+000	-8.134808e+000	-6.439954e+000	1.112794e+002	-5.155127e+000	-4.969315e+001
	-6.459311e+000	1.111879e+002	-6.946424e+000	-4.742293e+000	-4.495099e+000	-5.170319e+001
	-5.154200e+000	-4.956279e+001	-4.485612e+000	-5.167885e+001	-6.120408e+000	2.458996e+001
3560000000	-5.990879e+000	-9.062725e+000	-6.382844e+000	1.105557e+002	-5.156797e+000	-5.018863e+001
	-6.401421e+000	1.104767e+002	-6.961700e+000	-5.735020e+000	-4.493218e+000	-5.226150e+001
	-5.156663e+000	-5.006073e+001	-4.483488e+000	-5.223781e+001	-6.126839e+000	2.403186e+001
3565000000	-5.996414e+000	-9.978651e+000	-6.326730e+000	1.098036e+002	-5.158051e+000	-5.069706e+001
	-6.345016e+000	1.097295e+002	-6.980598e+000	-6.733514e+000	-4.491849e+000	-5.283149e+001
	-5.157695e+000	-5.056488e+001	-4.481222e+000	-5.280734e+001	-6.132151e+000	2.347186e+001
3570000000	-6.005239e+000	-1.088996e+001	-6.272485e+000	1.090379e+002	-5.158621e+000	-5.121053e+001
	-6.289815e+000	1.089564e+002	-7.002210e+000	-7.728290e+000	-4.490360e+000	-5.340253e+001
	-5.159575e+000	-5.107565e+001	-4.479854e+000	-5.337705e+001	-6.137507e+000	2.290744e+001
3575000000	-6.014358e+000	-1.181907e+001	-6.219080e+000	1.082563e+002	-5.158443e+000	-5.172250e+001
	-6.236803e+000	1.081792e+002	-7.025201e+000	-8.731369e+000	-4.488445e+000	-5.398109e+001
	-5.160684e+000	-5.158857e+001	-4.477531e+000	-5.395518e+001	-6.142394e+000	2.235838e+001
3580000000	-6.025838e+000	-1.274757e+001	-6.166535e+000	1.074679e+002	-5.158310e+000	-5.223212e+001
	-6.185067e+000	1.073966e+002	-7.049943e+000	-9.733666e+000	-4.486257e+000	-5.455393e+001
	-5.160892e+000	-5.209519e+001	-4.475174e+000	-5.453083e+001	-6.149000e+000	2.179494e+001
3585000000	-6.039346e+000	-1.367465e+001	-6.115268e+000	1.066751e+002	-5.157959e+000	-5.274939e+001
	-6.133968e+000	1.065980e+002	-7.076154e+000	-1.073897e+001	-4.484500e+000	-5.513356e+001
	-5.160684e+000	-5.260645e+001	-4.473637e+000	-5.510959e+001	-6.153236e+000	2.125411e+001
3590000000	-6.055704e+000	-1.460051e+001	-6.064462e+000	1.058766e+002	-5.157770e+000	-5.325566e+001
	-6.081033e+000	1.058039e+002	-7.104358e+000	-1.174680e+001	-4.482084e+000	-5.569751e+001
	-5.160890e+000	-5.311521e+001	-4.471044e+000	-5.568500e+001	-6.160671e+000	2.069387e+001
3595000000	-6.071370e+000	-1.553787e+001	-6.013999e+000	1.050797e+002	-5.156144e+000	-5.374948e+001
	-6.031435e+000	1.050037e+002	-7.133483e+000	-1.276766e+001	-4.479187e+000	-5.626710e+001
	-5.160036e+000	-5.361370e+001	-4.468452e+000	-5.625176e+001	-6.167992e+000	2.014957e+001
3600000000	-6.090334e+000	-1.648225e+001	-5.964954e+000	1.042837e+002	-5.155542e+000	-5.424065e+001
	-5.981418e+000	1.042045e+002	-7.163763e+000	-1.379415e+001	-4.477027e+000	-5.682558e+001
	-5.158314e+000	-5.409745e+001	-4.465767e+000	-5.681198e+001	-6.174648e+000	1.960136e+001
3605000000	-6.110107e+000	-1.743527e+001	-5.916529e+000	1.034812e+002	-5.153942e+000	-5.472770e+001
	-5.933187e+000	1.034031e+002	-7.195366e+000	-1.482303e+001	-4.474164e+000	-5.737918e+001
	-5.157313e+000	-5.458720e+001	-4.463555e+000	-5.736825e+001	-6.182385e+000	1.905050e+001
3610000000	-6.130469e+000	-1.839162e+001	-5.869202e+000	1.026663e+002	-5.153946e+000	-5.522636e+001
	-5.884829e+000	1.025852e+002	-7.228144e+000	-1.585520e+001	-4.471958e+000	-5.794564e+001
	-5.156156e+000	-5.508044e+001	-4.460913e+000	-5.794303e+001	-6.188596e+000	1.850236e+001
3615000000	-6.151619e+000	-1.935396e+001	-5.822799e+000	1.018363e+002	-5.152946e+000	-5.572816e+001
	-5.837620e+000	1.017529e+002	-7.261314e+000	-1.689283e+001	-4.470267e+000	-5.852541e+001
	-5.155478e+000	-5.558414e+001	-4.459324e+000	-5.851582e+001	-6.194609e+000	1.796120e+001
3620000000	-6.174145e+000	-2.032101e+001	-5.776776e+000	1.010036e+002	-5.152780e+000	-5.623273e+001
	-5.790997e+000	1.009165e+002	-7.294259e+000	-1.794631e+001	-4.469032e+000	-5.910460e+001
	-5.154325e+000	-5.608671e+001	-4.457126e+000	-5.909504e+001	-6.200338e+000	1.741298e+001
3625000000	-6.196897e+000	-2.129113e+001	-5.731873e+000	1.001584e+002	-5.152071e+000	-5.673751e+001
	-5.744892e+000	1.000670e+002	-7.328993e+000	-1.900184e+001	-4.467549e+000	-5.968924e+001
	-5.153909e+000	-5.659258e+001	-4.455624e+000	-5.967382e+001	-6.204732e+000	1.686521e+001
3630000000	-6.220281e+000	-2.226767e+001	-5.687132e+000	9.930981e+001	-5.150897e+000	-5.724362e+001
	-5.699736e+000	9.920676e+001	-7.365150e+000	-2.006443e+001	-4.466132e+000	-6.027864e+001
	-5.153300e+000	-5.710109e+001	-4.453878e+000	-6.025436e+001	-6.210986e+000	1.631883e+001
3635000000	-6.245219e+000	-2.325342e+001	-5.643024e+000	9.845542e+001	-5.149639e+000	-5.774773e+001
	-5.654470e+000	9.835175e+001	-7.401976e+000	-2.113292e+001	-4.464507e+000	-6.086486e+001
	-5.151800e+000	-5.760486e+001	-4.451776e+000	-6.083165e+001	-6.216670e+000	1.577406e+001
3640000000	-6.272086e+000	-2.424931e+001	-5.600523e+000	9.760030e+001	-5.147270e+000	-5.824596e+001
	-5.609810e+000	9.748944e+001	-7.440098e+000	-2.222065e+001	-4.463216e+000	-6.144115e+001
	-5.150261e+000	-5.810327e+001	-4.449701e+000	-6.140347e+001	-6.223426e+000	1.522780e+001
3645000000	-6.300384e+000	-2.525036e+001	-5.557136e+000	9.674615e+001	-5.145349e+000	-5.873885e+001
	-5.565867e+000	9.662884e+001	-7.480219e+000	-2.330476e+001	-4.461518e+000	-6.201797e+001
	-5.148556e+000	-5.859683e+001	-4.447400e+000	-6.197107e+001	-6.229944e+000	1.468638e+001
3650000000	-6.330026e+000	-2.625758e+001	-5.515268e+000	9.588681e+001	-5.143125e+000	-5.922095e+001
	-5.522206e+000	9.577254e+001	-7.519885e+000	-2.440012e+001	-4.459703e+000	-6.258329e+001
	-5.146124e+000	-5.908298e+001	-4.445666e+000	-6.253154e+001	-6.238359e+000	1.414097e+001
3655000000	-6.361305e+000	-2.727524e+001	-5.474206e+000	9.502464e+001	-5.140767e+000	-5.970601e+001
	-5.479387e+000	9.490872e+001	-7.562899e+000	-2.550358e+001	-4.458606e+000	-6.314584e+001
	-5.144243e+000	-5.956907e+001	-4.443801e+000	-6.309133e+001	-6.245654e+000	1.359713e+001
3660000000	-6.392570e+000	-2.829438e+001	-5.433477e+000	9.415049e+001	-5.138861e+000	-6.019900e+001
	-5.437489e+000	9.403645e+001	-7.607052e+000	-2.661166e+001	-4.457856e+000	-6.371905e+001
	-5.141877e+000	-6.006291e+001	-4.442440e+000	-6.365930e+001	-6.254700e+000	1.304866e+001
3665000000	-6.426245e+000	-2.932545e+001	-5.393647e+000	9.326190e+001	-5.135448e+000	-6.069899e+001
	-5.396885e+000	9.314912e+001	-7.652072e+000	-2.772294e+001	-4.456667e+000	-6.428897e+001
	-5.139896e+000	-6.056686e+001	-4.441295e+000	-6.423570e+001	-6.264161e+000	1.250724e+001
3670000000	-6.460453e+000	-3.036488e+001	-5.354539e+000	9.236830e+001	-5.132675e+000	-6.120401e+001
	-5.356543e+000	9.225653e+001	-7.699054e+000	-2.884432e+001	-4.455781e+000	-6.487274e+001
	-5.136903e+000	-6.107229e+001	-4.440150e+000	-6.481530e+001	-6.272234e+000	1.195814e+001
3675000000	-6.496060e+000	-3.140494e+001	-5.316168e+000	9.146655e+001	-5.129737e+000	-6.171220e+001
	-5.316978e+000	9.135395e+001	-7.746692e+000	-2.997058e+001	-4.455903e+000	-6.545382e+001
	-5.134738e+000	-6.157757e+001	-4.438791e+000	-6.539644e+001	-6.282359e+000	1.140622e+001
3680000000	-6.532575e+000	-3.245162e+001	-5.277526e+000	9.055867e+001	-5.126036e+000	-6.221979e+001
	-5.278098e+000	9.044968e+001	-7.795971e+000	-3.111032e+001	-4.454948e+000	-6.603270e+001
	-5.131050e+000	-6.208205e+001	-4.437576e+000	-6.597461e+001	-6.291685e+000	1.086264e+001
3685000000	-6.571769e+000	-3.349691e+001	-5.240502e+000	8.964619e+001	-5.122346e+000	-6.272225e+001
	-5.239219e+000	8.954191e+001	-7.845702e+000	-3.224856e+001	-4.454101e+000	-6.661162e+001
	-5.127189e+000	-6.259268e+001	-4.436256e+000	-6.655000e+001	-6.301399e+000	1.031068e+001
3690000000	-6.611827e+000	-3.455112e+001	-5.203035e+000	8.873295e+001	-5.118345e+000	-6.323144e+001
	-5.201101e+000	8.863214e+001	-7.900722e+000	-3.338922e+001	-4.453364e+000	-6.718833e+001
	-5.123113e+000	-6.309534e+001	-4.434833e+000	-6.712748e+001	-6.313346e+000	9.763729e+000
3695000000	-6.652910e+000	-3.562528e+001	-5.166247e+000	8.781635e+001	-5.113495e+000	-6.372691e+001
	-5.164284e+000	8.771856e+001	-7.954483e+000	-3.455193e+001	-4.452264e+000	-6.775687e+001
	-5.118868e+000	-6.358904e+001	-4.433137e+000	-6.770057e+001	-6.325166e+000	9.217784e+000
3700000000	-6.695066e+000	-3.670861e+001	-5.130186e+000	8.690373e+001	-5.108433e+000	-6.421439e+001
	-5.128982e+000	8.681384e+001	-8.011764e+000	-3.571055e+001	-4.450825e+000	-6.831376e+001
	-5.112894e+000	-6.407149e+001	-4.431625e+000	-6.825988e+001	-6.337442e+000	8.664408e+000
3705000000	-6.741833e+000	-3.777659e+001	-5.094835e+000	8.598077e+001	-5.103561e+000	-6.470337e+001
	-5.091786e+000	8.590240e+001	-8.071357e+000	-3.688543e+001	-4.449609e+000	-6.887735e+001
	-5.109341e+000	-6.456216e+001	-4.430508e+000	-6.882337e+001	-6.351316e+000	8.112258e+000
3710000000	-6.787418e+000	-3.886540e+001	-5.060017e+000	8.504717e+001	-5.098517e+000	-6.520542e+001
	-5.056213e+000	8.497912e+001	-8.132658e+000	-3.806966e+001	-4.448399e+000	-6.945437e+001
	-5.105158e+000	-6.505882e+001	-4.429562e+000	-6.939412e+001	-6.365041e+000	7.569931e+000
3715000000	-6.835341e+000	-3.995862e+001	-5.025920e+000	8.410267e+001	-5.094101e+000	-6.570578e+001
	-5.024641e+000	8.403301e+001	-8.195920e+000	-3.925973e+001	-4.447795e+000	-7.002919e+001
	-5.099028e+000	-6.554993e+001	-4.429274e+000	-6.997353e+001	-6.378426e+000	7.001501e+000
3720000000	-6.886459e+000	-4.105089e+001	-4.992487e+000	8.315193e+001	-5.088891e+000	-6.621703e+001
	-4.989769e+000	8.310391e+001	-8.261135e+000	-4.046085e+001	-4.446856e+000	-7.061782e+001
	-5.094946e+000	-6.606766e+001	-4.428687e+000	-7.055249e+001	-6.391722e+000	6.450334e+000
3725000000	-6.937167e+000	-4.215594e+001	-4.960175e+000	8.219080e+001	-5.084164e+000	-6.672260e+001
	-4.958483e+000	8.214066e+001	-8.328378e+000	-4.167164e+001	-4.444877e+000	-7.120156e+001
	-5.088997e+000	-6.656035e+001	-4.427699e+000	-7.113593e+001	-6.405716e+000	5.877700e+000
3730000000	-6.992336e+000	-4.326545e+001	-4.928808e+000	8.122212e+001	-5.077987e+000	-6.723500e+001
	-4.925391e+000	8.119351e+001	-8.398339e+000	-4.289117e+001	-4.443803e+000	-7.178887e+001
	-5.083553e+000	-6.708000e+001	-4.427426e+000	-7.172171e+001	-6.420810e+000	5.314017e+000
3735000000	-7.049294e+000	-4.438219e+001	-4.898172e+000	8.025075e+001	-5.072376e+000	-6.774303e+001
	-4.894324e+000	8.022839e+001	-8.470417e+000	-4.412281e+001	-4.441392e+000	-7.237503e+001
	-5.077207e+000	-6.758266e+001	-4.426523e+000	-7.230443e+001	-6.435401e+000	4.737446e+000
3740000000	-7.106135e+000	-4.550093e+001	-4.868376e+000	7.927808e+001	-5.065623e+000	-6.824655e+001
	-4.864655e+000	7.926584e+001	-8.545364e+000	-4.536289e+001	-4.440340e+000	-7.296086e+001
	-5.071274e+000	-6.809194e+001	-4.425553e+000	-7.288776e+001	-6.450684e+000	4.174537e+000
3745000000	-7.167482e+000	-4.663226e+001	-4.839498e+000	7.829799e+001	-5.058747e+000	-6.874447e+001
	-4.835468e+000	7.829084e+001	-8.624269e+000	-4.659759e+001	-4.439506e+000	-7.353424e+001
	-5.064224e+000	-6.858473e+001	-4.425470e+000	-7.346511e+001	-6.466343e+000	3.601196e+000
3750000000	-7.231753e+000	-4.776289e+001	-4.814034e+000	7.732246e+001	-5.051644e+000	-6.923479e+001
	-4.807643e+000	7.732104e+001	-8.703330e+000	-4.787905e+001	-4.437932e+000	-7.410178e+001
	-5.056793e+000	-6.907446e+001	-4.423149e+000	-7.402575e+001	-6.481516e+000	3.029644e+000
3755000000	-7.299058e+000	-4.890254e+001	-4.786418e+000	7.633742e+001	-5.044584e+000	-6.973293e+001
	-4.781681e+000	7.634278e+001	-8.789981e+000	-4.911840e+001	-4.437132e+000	-7.467059e+001
	-5.049611e+000	-6.956842e+001	-4.423804e+000	-7.460226e+001	-6.496491e+000	2.455420e+000
3760000000	-7.367859e+000	-5.004282e+001	-4.764468e+000	7.534054e+001	-5.037561e+000	-7.022863e+001
	-4.757371e+000	7.535559e+001	-8.874538e+000	-5.040894e+001	-4.437013e+000	-7.524628e+001
	-5.042240e+000	-7.006700e+001	-4.422779e+000	-7.517075e+001	-6.511686e+000	1.875641e+000
3765000000	-7.440801e+000	-5.118853e+001	-4.740303e+000	7.434469e+001	-5.030942e+000	-7.073916e+001
	-4.735254e+000	7.435260e+001	-8.964708e+000	-5.167259e+001	-4.436773e+000	-7.583070e+001
	-5.034959e+000	-7.057771e+001	-4.424706e+000	-7.575946e+001	-6.526304e+000	1.295508e+000
3770000000	-7.515621e+000	-5.231658e+001	-4.722999e+000	7.332001e+001	-5.023193e+000	-7.125157e+001
	-4.715725e+000	7.334092e+001	-9.055254e+000	-5.295548e+001	-4.436828e+000	-7.642190e+001
	-5.027869e+000	-7.109335e+001	-4.423797e+000	-7.633631e+001	-6.541108e+000	7.140015e-001
3775000000	-7.594925e+000	-5.342228e+001	-4.704791e+000	7.233044e+001	-5.015450e+000	-7.176796e+001
	-4.698287e+000	7.233725e+001	-9.150810e+000	-5.421160e+001	-4.436991e+000	-7.701532e+001
	-5.020014e+000	-7.161369e+001	-4.425368e+000	-7.693219e+001	-6.555394e+000	1.279900e-001
3780000000	-7.673552e+000	-5.452207e+001	-4.690862e+000	7.132410e+001	-5.007866e+000	-7.228501e+001
	-4.683623e+000	7.134440e+001	-9.240570e+000	-5.546791e+001	-4.436799e+000	-7.760809e+001
	-5.012462e+000	-7.213237e+001	-4.425285e+000	-7.751379e+001	-6.570661e+000	-4.540204e-001
3785000000	-7.752709e+000	-5.559202e+001	-4.675660e+000	7.035774e+001	-4.999557e+000	-7.279756e+001
	-4.668812e+000	7.036750e+001	-9.333359e+000	-5.672717e+001	-4.436589e+000	-7.819601e+001
	-5.004260e+000	-7.265543e+001	-4.425498e+000	-7.810477e+001	-6.583850e+000	-1.037559e+000
3790000000	-7.828821e+000	-5.667299e+001	-4.660240e+000	6.939282e+001	-4.991719e+000	-7.330623e+001
	-4.652228e+000	6.940302e+001	-9.418104e+000	-5.799463e+001	-4.436909e+000	-7.878532e+001
	-4.996559e+000	-7.317284e+001	-4.425357e+000	-7.868329e+001	-6.598935e+000	-1.613065e+000
3795000000	-7.902457e+000	-5.777838e+001	-4.642154e+000	6.843364e+001	-4.983620e+000	-7.380990e+001
	-4.634130e+000	6.844305e+001	-9.503777e+000	-5.932378e+001	-4.436905e+000	-7.936981e+001
	-4.987812e+000	-7.368254e+001	-4.426212e+000	-7.926002e+001	-6.614331e+000	-2.188085e+000
3800000000	-7.978221e+000	-5.891839e+001	-4.623226e+000	6.746413e+001	-4.974794e+000	-7.430585e+001
	-4.614563e+000	6.747374e+001	-9.593822e+000	-6.067378e+001	-4.437122e+000	-7.994273e+001
	-4.978878e+000	-7.418772e+001	-4.426091e+000	-7.982859e+001	-6.629988e+000	-2.767299e+000
3805000000	-8.056525e+000	-6.008282e+001	-4.604226e+000	6.647469e+001	-4.965666e+000	-7.480191e+001
	-4.595479e+000	6.649067e+001	-9.688450e+000	-6.206411e+001	-4.437397e+000	-8.051714e+001
	-4.969831e+000	-7.469144e+001	-4.427480e+000	-8.038888e+001	-6.646646e+000	-3.339452e+000
3810000000	-8.139542e+000	-6.126532e+001	-4.586766e+000	6.547448e+001	-4.956747e+000	-7.530479e+001
	-4.577368e+000	6.548746e+001	-9.785591e+000	-6.346347e+001	-4.439013e+000	-8.109609e+001
	-4.960859e+000	-7.520552e+001	-4.428935e+000	-8.096251e+001	-6.663869e+000	-3.910903e+000
3815000000	-8.225503e+000	-6.245426e+001	-4.570699e+000	6.446176e+001	-4.946052e+000	-7.581928e+001
	-4.560660e+000	6.447608e+001	-9.885224e+000	-6.487636e+001	-4.440074e+000	-8.168022e+001
	-4.951014e+000	-7.572096e+001	-4.430671e+000	-8.154154e+001	-6.680409e+000	-4.485578e+000
3820000000	-8.315386e+000	-6.365764e+001	-4.556342e+000	6.344228e+001	-4.935555e+000	-7.634081e+001
	-4.546186e+000	6.345127e+001	-9.987481e+000	-6.630075e+001	-4.442161e+000	-8.226582e+001
	-4.941317e+000	-7.625002e+001	-4.432562e+000	-8.212297e+001	-6.697365e+000	-5.060383e+000
3825000000	-8.410365e+000	-6.485574e+001	-4.543670e+000	6.241104e+001	-4.924761e+000	-7.686538e+001
	-4.533771e+000	6.242728e+001	-1.009172e+001	-6.772764e+001	-4.443581e+000	-8.285337e+001
	-4.931601e+000	-7.677720e+001	-4.434645e+000	-8.270670e+001	-6.714425e+000	-5.634419e+000
3830000000	-8.505416e+000	-6.606528e+001	-4.531929e+000	6.137778e+001	-4.913158e+000	-7.739251e+001
	-4.521980e+000	6.139944e+001	-1.019709e+001	-6.915041e+001	-4.445734e+000	-8.343584e+001
	-4.920513e+000	-7.730506e+001	-4.436666e+000	-8.329113e+001	-6.731267e+000	-6.203272e+000
3835000000	-8.604334e+000	-6.728346e+001	-4.522572e+000	6.034069e+001	-4.902051e+000	-7.791936e+001
	-4.512267e+000	6.036785e+001	-1.030594e+001	-7.057441e+001	-4.447778e+000	-8.401445e+001
	-4.909803e+000	-7.782976e+001	-4.438891e+000	-8.386950e+001	-6.749342e+000	-6.769234e+000
3840000000	-8.704863e+000	-6.850495e+001	-4.514501e+000	5.930286e+001	-4.890071e+000	-7.845037e+001
	-4.504016e+000	5.933979e+001	-1.041784e+001	-7.202816e+001	-4.449048e+000	-8.459601e+001
	-4.898345e+000	-7.835966e+001	-4.439983e+000	-8.444530e+001	-6.767375e+000	-7.337157e+000
3845000000	-8.807858e+000	-6.973460e+001	-4.507652e+000	5.826809e+001	-4.878028e+000	-7.897181e+001
	-4.497463e+000	5.830982e+001	-1.053321e+001	-7.347313e+001	-4.450338e+000	-8.516412e+001
