!Agilent Technologies,E5071B,MY42403545,A.09.10
!Date: Thu Jul 18 07:36:20 2019
!Data & Calibration Information:
!Freq	S11:SOLT2(ON)	S21:SOLT2(ON)	S12:SOLT2(ON)	S22:SOLT2(ON)
# Hz S dB R 50
10000000	-8.232517e-001	-3.332594e+001	-3.719121e+001	9.808117e+001	5.499988e+000	9.730124e+001	-2.406130e+000	-1.192961e+001
20612500	-1.604496e+000	-6.083087e+001	-3.325121e+001	5.544740e+001	9.281966e+000	5.439815e+001	-3.100357e+000	-1.963277e+001
31225000	-2.415106e+000	-8.162352e+001	-3.161809e+001	3.551289e+001	1.056911e+001	3.334879e+001	-4.084950e+000	-2.363407e+001
41837500	-2.783265e+000	-9.818480e+001	-3.151022e+001	2.234802e+001	1.032244e+001	1.960541e+001	-5.201225e+000	-2.660706e+001
52450000	-3.071289e+000	-1.116614e+002	-3.159999e+001	1.497647e+001	1.005775e+001	1.198871e+001	-6.093166e+000	-2.682450e+001
63062500	-3.280897e+000	-1.228608e+002	-3.176491e+001	1.071736e+001	9.780640e+000	7.530914e+000	-6.788117e+000	-2.586631e+001
73675000	-3.552040e+000	-1.329646e+002	-3.179445e+001	9.977078e+000	9.725493e+000	7.048879e+000	-7.263920e+000	-2.310736e+001
84287500	-4.005540e+000	-1.377967e+002	-3.104814e+001	4.428993e+000	1.051198e+001	9.807879e-001	-7.056141e+000	-2.314150e+001
94900000	-3.829867e+000	-1.435916e+002	-3.148006e+001	9.293027e-002	9.949948e+000	-3.815143e+000	-7.524722e+000	-2.387123e+001
105512500	-3.810334e+000	-1.492516e+002	-3.170999e+001	-1.895283e+000	9.628057e+000	-6.102072e+000	-7.838295e+000	-2.331596e+001
116125000	-3.830159e+000	-1.542387e+002	-3.183663e+001	-3.314344e+000	9.457021e+000	-7.741581e+000	-8.039926e+000	-2.260663e+001
126737500	-3.855023e+000	-1.586620e+002	-3.191552e+001	-4.548256e+000	9.361942e+000	-9.209603e+000	-8.181566e+000	-2.202263e+001
137350000	-3.876224e+000	-1.626470e+002	-3.197843e+001	-5.668982e+000	9.295400e+000	-1.049257e+001	-8.296301e+000	-2.148048e+001
147962500	-3.897582e+000	-1.663257e+002	-3.201782e+001	-6.571638e+000	9.274499e+000	-1.159066e+001	-8.375085e+000	-2.097734e+001
158575000	-3.934055e+000	-1.698223e+002	-3.202075e+001	-7.218076e+000	9.293678e+000	-1.241647e+001	-8.409057e+000	-2.043295e+001
169187500	-4.034107e+000	-1.725549e+002	-3.187353e+001	-8.747254e+000	9.479093e+000	-1.425357e+001	-8.337771e+000	-2.060419e+001
179800000	-3.992979e+000	-1.751520e+002	-3.198322e+001	-1.023579e+001	9.346242e+000	-1.601380e+001	-8.426541e+000	-2.077298e+001
190412500	-3.982816e+000	-1.778535e+002	-3.203709e+001	-1.113413e+001	9.268969e+000	-1.720374e+001	-8.466153e+000	-2.068806e+001
201025000	-3.983076e+000	1.795587e+002	-3.205618e+001	-1.197275e+001	9.224643e+000	-1.827233e+001	-8.476038e+000	-2.062673e+001
211637500	-3.989824e+000	1.771026e+002	-3.206287e+001	-1.277031e+001	9.202674e+000	-1.931642e+001	-8.468270e+000	-2.062581e+001
222250000	-3.999196e+000	1.747586e+002	-3.206459e+001	-1.361008e+001	9.186645e+000	-2.036906e+001	-8.451378e+000	-2.069489e+001
232862500	-4.007895e+000	1.725067e+002	-3.205714e+001	-1.443864e+001	9.196357e+000	-2.146068e+001	-8.424478e+000	-2.085864e+001
243475000	-4.016446e+000	1.703448e+002	-3.204068e+001	-1.526283e+001	9.223240e+000	-2.255845e+001	-8.395599e+000	-2.108663e+001
254087500	-4.032660e+000	1.682445e+002	-3.201717e+001	-1.607624e+001	9.265286e+000	-2.359529e+001	-8.358849e+000	-2.133711e+001
264700000	-4.055042e+000	1.663053e+002	-3.198535e+001	-1.707274e+001	9.327229e+000	-2.483509e+001	-8.321502e+000	-2.174394e+001
275312500	-4.053713e+000	1.644323e+002	-3.199315e+001	-1.805812e+001	9.350464e+000	-2.608757e+001	-8.300990e+000	-2.213845e+001
285925000	-4.054336e+000	1.625467e+002	-3.198218e+001	-1.886691e+001	9.376385e+000	-2.718591e+001	-8.265188e+000	-2.252742e+001
296537500	-4.057918e+000	1.606906e+002	-3.196439e+001	-1.967070e+001	9.408037e+000	-2.824487e+001	-8.225781e+000	-2.294285e+001
307150000	-4.064235e+000	1.588732e+002	-3.195017e+001	-2.046851e+001	9.434642e+000	-2.932545e+001	-8.186200e+000	-2.339059e+001
317762500	-4.068498e+000	1.570908e+002	-3.192426e+001	-2.128782e+001	9.448852e+000	-3.045219e+001	-8.141296e+000	-2.387690e+001
328375000	-4.073071e+000	1.553362e+002	-3.190394e+001	-2.216960e+001	9.463242e+000	-3.159100e+001	-8.090314e+000	-2.439415e+001
338987500	-4.078370e+000	1.536236e+002	-3.187469e+001	-2.303506e+001	9.479372e+000	-3.269979e+001	-8.032402e+000	-2.494727e+001
349600000	-4.084773e+000	1.519433e+002	-3.184833e+001	-2.390559e+001	9.496110e+000	-3.380069e+001	-7.972939e+000	-2.553720e+001
360212500	-4.092513e+000	1.502942e+002	-3.182345e+001	-2.476067e+001	9.518958e+000	-3.493682e+001	-7.917629e+000	-2.614555e+001
370825000	-4.100922e+000	1.486751e+002	-3.179318e+001	-2.565861e+001	9.557999e+000	-3.611724e+001	-7.861130e+000	-2.674953e+001
381437500	-4.107326e+000	1.470868e+002	-3.176586e+001	-2.657413e+001	9.610423e+000	-3.729859e+001	-7.801101e+000	-2.735200e+001
392050000	-4.111644e+000	1.455108e+002	-3.174160e+001	-2.749639e+001	9.679061e+000	-3.846464e+001	-7.736827e+000	-2.797600e+001
402662500	-4.117974e+000	1.439646e+002	-3.171266e+001	-2.835995e+001	9.752582e+000	-3.962572e+001	-7.674117e+000	-2.863837e+001
413275000	-4.123919e+000	1.424276e+002	-3.168549e+001	-2.927068e+001	9.811204e+000	-4.084338e+001	-7.618865e+000	-2.936479e+001
423887500	-4.129009e+000	1.409049e+002	-3.165646e+001	-3.020868e+001	9.855551e+000	-4.205373e+001	-7.569909e+000	-3.007556e+001
434500000	-4.134731e+000	1.394001e+002	-3.162805e+001	-3.119233e+001	9.891659e+000	-4.326783e+001	-7.519596e+000	-3.078665e+001
445112500	-4.137627e+000	1.378882e+002	-3.159881e+001	-3.208359e+001	9.915737e+000	-4.450311e+001	-7.465459e+000	-3.153301e+001
455725000	-4.143224e+000	1.364045e+002	-3.156962e+001	-3.299434e+001	9.937518e+000	-4.573693e+001	-7.409300e+000	-3.232445e+001
466337500	-4.150391e+000	1.349325e+002	-3.154129e+001	-3.392253e+001	9.960024e+000	-4.693594e+001	-7.354396e+000	-3.312801e+001
476950000	-4.156589e+000	1.334665e+002	-3.151366e+001	-3.488731e+001	9.998788e+000	-4.814757e+001	-7.306363e+000	-3.395317e+001
487562500	-4.163804e+000	1.320178e+002	-3.148561e+001	-3.584072e+001	1.005176e+001	-4.939714e+001	-7.262856e+000	-3.478603e+001
498175000	-4.170229e+000	1.305952e+002	-3.145810e+001	-3.680142e+001	1.011254e+001	-5.068239e+001	-7.219902e+000	-3.562105e+001
508787500	-4.176176e+000	1.291894e+002	-3.142910e+001	-3.773028e+001	1.017055e+001	-5.192602e+001	-7.169340e+000	-3.645585e+001
519400000	-4.181619e+000	1.277872e+002	-3.140522e+001	-3.869601e+001	1.022212e+001	-5.315380e+001	-7.111992e+000	-3.732426e+001
530012500	-4.185010e+000	1.264031e+002	-3.138123e+001	-3.970316e+001	1.027768e+001	-5.436355e+001	-7.056585e+000	-3.823598e+001
540625000	-4.188716e+000	1.250356e+002	-3.135883e+001	-4.069112e+001	1.033554e+001	-5.560403e+001	-7.002928e+000	-3.917127e+001
551237500	-4.190996e+000	1.236710e+002	-3.133063e+001	-4.163431e+001	1.038659e+001	-5.702719e+001	-6.951912e+000	-4.017208e+001
561850000	-4.193293e+000	1.223053e+002	-3.130745e+001	-4.260576e+001	1.040202e+001	-5.841242e+001	-6.908140e+000	-4.116040e+001
572462500	-4.196105e+000	1.209336e+002	-3.128671e+001	-4.359747e+001	1.041863e+001	-5.960670e+001	-6.858500e+000	-4.207512e+001
583075000	-4.198873e+000	1.195673e+002	-3.125972e+001	-4.460516e+001	1.046559e+001	-6.074003e+001	-6.803397e+000	-4.295466e+001
593687500	-4.203109e+000	1.182075e+002	-3.124068e+001	-4.558385e+001	1.053913e+001	-6.202068e+001	-6.742678e+000	-4.391367e+001
604300000	-4.208627e+000	1.168660e+002	-3.122011e+001	-4.650729e+001	1.058773e+001	-6.354475e+001	-6.693606e+000	-4.496556e+001
614912500	-4.214504e+000	1.155220e+002	-3.119308e+001	-4.748785e+001	1.062225e+001	-6.491058e+001	-6.648430e+000	-4.593238e+001
625525000	-4.218153e+000	1.141765e+002	-3.116925e+001	-4.848007e+001	1.066819e+001	-6.622040e+001	-6.599620e+000	-4.687492e+001
636137500	-4.226570e+000	1.128539e+002	-3.114210e+001	-4.949728e+001	1.072066e+001	-6.754234e+001	-6.552559e+000	-4.785165e+001
646750000	-4.232650e+000	1.115462e+002	-3.111991e+001	-5.048518e+001	1.077854e+001	-6.888538e+001	-6.508874e+000	-4.883640e+001
657362500	-4.237615e+000	1.102471e+002	-3.109750e+001	-5.145636e+001	1.081500e+001	-7.028467e+001	-6.471026e+000	-4.983092e+001
667975000	-4.242013e+000	1.089589e+002	-3.107490e+001	-5.247579e+001	1.083111e+001	-7.167597e+001	-6.435073e+000	-5.080733e+001
678587500	-4.244542e+000	1.076720e+002	-3.105300e+001	-5.350607e+001	1.083509e+001	-7.300118e+001	-6.394501e+000	-5.178982e+001
689200000	-4.243537e+000	1.063787e+002	-3.103123e+001	-5.454395e+001	1.085262e+001	-7.430087e+001	-6.350430e+000	-5.278886e+001
699812500	-4.245589e+000	1.051047e+002	-3.100910e+001	-5.552566e+001	1.088562e+001	-7.559388e+001	-6.306431e+000	-5.381705e+001
710425000	-4.242927e+000	1.038083e+002	-3.099144e+001	-5.654142e+001	1.093823e+001	-7.698358e+001	-6.266098e+000	-5.486853e+001
721037500	-4.241972e+000	1.025103e+002	-3.097362e+001	-5.757327e+001	1.100564e+001	-7.843807e+001	-6.229747e+000	-5.592724e+001
731650000	-4.242631e+000	1.012175e+002	-3.095232e+001	-5.863560e+001	1.108424e+001	-7.988244e+001	-6.193954e+000	-5.699725e+001
742262500	-4.240936e+000	9.991503e+001	-3.093383e+001	-5.967262e+001	1.116649e+001	-8.130310e+001	-6.162756e+000	-5.805774e+001
752875000	-4.241811e+000	9.863156e+001	-3.091761e+001	-6.069870e+001	1.123578e+001	-8.268234e+001	-6.131548e+000	-5.910587e+001
763487500	-4.244391e+000	9.735115e+001	-3.089959e+001	-6.171195e+001	1.128306e+001	-8.401373e+001	-6.098362e+000	-6.014710e+001
774100000	-4.246598e+000	9.607451e+001	-3.088694e+001	-6.278646e+001	1.131157e+001	-8.532692e+001	-6.062121e+000	-6.119055e+001
784712500	-4.252697e+000	9.481445e+001	-3.087465e+001	-6.382610e+001	1.132826e+001	-8.666310e+001	-6.020637e+000	-6.226972e+001
795325000	-4.257479e+000	9.355998e+001	-3.085988e+001	-6.491896e+001	1.133540e+001	-8.807085e+001	-5.974735e+000	-6.340642e+001
805937500	-4.263889e+000	9.233852e+001	-3.084971e+001	-6.589830e+001	1.133178e+001	-8.952858e+001	-5.928938e+000	-6.460795e+001
816550000	-4.266680e+000	9.111393e+001	-3.084124e+001	-6.689984e+001	1.132982e+001	-9.101268e+001	-5.891852e+000	-6.582248e+001
827162500	-4.268789e+000	8.988973e+001	-3.083151e+001	-6.795161e+001	1.132747e+001	-9.240975e+001	-5.869359e+000	-6.695682e+001
837775000	-4.270898e+000	8.867672e+001	-3.081291e+001	-6.894833e+001	1.136681e+001	-9.373832e+001	-5.850279e+000	-6.796039e+001
848387500	-4.272891e+000	8.746482e+001	-3.079844e+001	-6.995031e+001	1.143916e+001	-9.511685e+001	-5.818931e+000	-6.896691e+001
859000000	-4.273167e+000	8.623952e+001	-3.078357e+001	-7.094377e+001	1.152404e+001	-9.653095e+001	-5.783590e+000	-7.001385e+001
869612500	-4.269054e+000	8.499458e+001	-3.076781e+001	-7.200821e+001	1.160189e+001	-9.797649e+001	-5.748972e+000	-7.109408e+001
880225000	-4.267647e+000	8.374221e+001	-3.075739e+001	-7.307780e+001	1.167551e+001	-9.948598e+001	-5.717966e+000	-7.221408e+001
890837500	-4.265840e+000	8.248900e+001	-3.073936e+001	-7.411480e+001	1.171744e+001	-1.010070e+002	-5.698585e+000	-7.334460e+001
901450000	-4.263483e+000	8.123834e+001	-3.072859e+001	-7.513948e+001	1.171054e+001	-1.023970e+002	-5.696465e+000	-7.438898e+001
912062500	-4.261315e+000	7.999159e+001	-3.071622e+001	-7.615726e+001	1.168774e+001	-1.036994e+002	-5.688699e+000	-7.539296e+001
922675000	-4.258697e+000	7.873723e+001	-3.070529e+001	-7.722226e+001	1.166715e+001	-1.049997e+002	-5.670566e+000	-7.643674e+001
933287500	-4.257028e+000	7.748977e+001	-3.069459e+001	-7.826772e+001	1.166457e+001	-1.063231e+002	-5.641761e+000	-7.753083e+001
943900000	-4.254978e+000	7.625512e+001	-3.068172e+001	-7.931811e+001	1.168559e+001	-1.077263e+002	-5.607469e+000	-7.869270e+001
954512500	-4.255025e+000	7.505341e+001	-3.067364e+001	-8.034491e+001	1.172492e+001	-1.091798e+002	-5.575904e+000	-7.988868e+001
965125000	-4.253942e+000	7.385064e+001	-3.066549e+001	-8.136606e+001	1.177364e+001	-1.106544e+002	-5.546394e+000	-8.108295e+001
975737500	-4.254136e+000	7.264632e+001	-3.065556e+001	-8.241990e+001	1.183988e+001	-1.121219e+002	-5.519646e+000	-8.225833e+001
986350000	-4.252074e+000	7.144827e+001	-3.064166e+001	-8.348694e+001	1.192636e+001	-1.135982e+002	-5.494027e+000	-8.342427e+001
996962500	-4.251072e+000	7.026891e+001	-3.063180e+001	-8.456997e+001	1.200988e+001	-1.150719e+002	-5.472283e+000	-8.457719e+001
1007575000	-4.253174e+000	6.909857e+001	-3.062919e+001	-8.565197e+001	1.207491e+001	-1.164866e+002	-5.453429e+000	-8.573978e+001
1018187500	-4.254524e+000	6.791347e+001	-3.063125e+001	-8.675614e+001	1.211188e+001	-1.179190e+002	-5.437571e+000	-8.684938e+001
1028800000	-4.253624e+000	6.671649e+001	-3.063643e+001	-8.778824e+001	1.212006e+001	-1.193509e+002	-5.418600e+000	-8.795862e+001
1039412500	-4.254557e+000	6.549549e+001	-3.063396e+001	-8.881406e+001	1.210845e+001	-1.207763e+002	-5.402199e+000	-8.908137e+001
1050025000	-4.256277e+000	6.427608e+001	-3.063131e+001	-8.977284e+001	1.207985e+001	-1.222046e+002	-5.388865e+000	-9.020135e+001
1060637500	-4.258196e+000	6.305926e+001	-3.062575e+001	-9.074749e+001	1.204791e+001	-1.236243e+002	-5.375747e+000	-9.130647e+001
1071250000	-4.261147e+000	6.183276e+001	-3.061532e+001	-9.179701e+001	1.203257e+001	-1.250500e+002	-5.363274e+000	-9.239750e+001
1081862500	-4.263542e+000	6.061187e+001	-3.060474e+001	-9.282554e+001	1.204016e+001	-1.264703e+002	-5.352617e+000	-9.347161e+001
1092475000	-4.263713e+000	5.940406e+001	-3.059613e+001	-9.388199e+001	1.206743e+001	-1.278858e+002	-5.343262e+000	-9.453886e+001
1103087500	-4.260730e+000	5.822302e+001	-3.059254e+001	-9.489796e+001	1.210555e+001	-1.292768e+002	-5.333088e+000	-9.559783e+001
1113700000	-4.253582e+000	5.705721e+001	-3.059203e+001	-9.593130e+001	1.214492e+001	-1.306840e+002	-5.319603e+000	-9.667669e+001
1124312500	-4.238980e+000	5.585196e+001	-3.058837e+001	-9.696577e+001	1.218901e+001	-1.320783e+002	-5.300771e+000	-9.777868e+001
1134925000	-4.224666e+000	5.460666e+001	-3.058138e+001	-9.799342e+001	1.224206e+001	-1.334910e+002	-5.281162e+000	-9.892611e+001
1145537500	-4.213219e+000	5.338199e+001	-3.057288e+001	-9.905123e+001	1.229693e+001	-1.348976e+002	-5.263460e+000	-1.000899e+002
1156150000	-4.203491e+000	5.217926e+001	-3.057172e+001	-1.000667e+002	1.234586e+001	-1.363063e+002	-5.246889e+000	-1.012779e+002
1166762500	-4.196565e+000	5.097226e+001	-3.057262e+001	-1.011065e+002	1.239076e+001	-1.377542e+002	-5.233091e+000	-1.024760e+002
1177375000	-4.194523e+000	4.977568e+001	-3.057702e+001	-1.021652e+002	1.242703e+001	-1.392313e+002	-5.222500e+000	-1.036669e+002
1187987500	-4.193493e+000	4.860322e+001	-3.057896e+001	-1.032492e+002	1.245334e+001	-1.407153e+002	-5.213117e+000	-1.048394e+002
1198600000	-4.193615e+000	4.746374e+001	-3.058420e+001	-1.042683e+002	1.246391e+001	-1.421699e+002	-5.203891e+000	-1.059995e+002
1209212500	-4.192160e+000	4.632374e+001	-3.058971e+001	-1.052527e+002	1.246670e+001	-1.435705e+002	-5.192191e+000	-1.071634e+002
1219825000	-4.192752e+000	4.516111e+001	-3.059187e+001	-1.062574e+002	1.248085e+001	-1.449903e+002	-5.177707e+000	-1.083373e+002
1230437500	-4.198881e+000	4.399645e+001	-3.058188e+001	-1.072322e+002	1.249950e+001	-1.464436e+002	-5.168933e+000	-1.094879e+002
1241050000	-4.205818e+000	4.282340e+001	-3.057390e+001	-1.082747e+002	1.251442e+001	-1.479201e+002	-5.164928e+000	-1.106032e+002
1251662500	-4.211495e+000	4.164703e+001	-3.056214e+001	-1.092772e+002	1.252024e+001	-1.493619e+002	-5.165984e+000	-1.116736e+002
1262275000	-4.215541e+000	4.045033e+001	-3.055392e+001	-1.103673e+002	1.250311e+001	-1.507997e+002	-5.166441e+000	-1.127205e+002
1272887500	-4.217672e+000	3.922418e+001	-3.054819e+001	-1.114711e+002	1.247755e+001	-1.522401e+002	-5.163093e+000	-1.137673e+002
1283500000	-4.217769e+000	3.797304e+001	-3.055384e+001	-1.125734e+002	1.245438e+001	-1.536681e+002	-5.155641e+000	-1.148367e+002
1294112500	-4.212528e+000	3.669780e+001	-3.056040e+001	-1.136436e+002	1.244847e+001	-1.550313e+002	-5.144587e+000	-1.159246e+002
1304725000	-4.203177e+000	3.540624e+001	-3.056754e+001	-1.146667e+002	1.248157e+001	-1.563452e+002	-5.130105e+000	-1.170034e+002
1315337500	-4.193637e+000	3.408936e+001	-3.057591e+001	-1.157364e+002	1.254192e+001	-1.577512e+002	-5.111327e+000	-1.181500e+002
1325950000	-4.183265e+000	3.277234e+001	-3.059028e+001	-1.167901e+002	1.261243e+001	-1.592172e+002	-5.093812e+000	-1.193272e+002
1336562500	-4.173162e+000	3.148391e+001	-3.060112e+001	-1.178112e+002	1.267763e+001	-1.606747e+002	-5.077664e+000	-1.205195e+002
1347175000	-4.160471e+000	3.025605e+001	-3.061596e+001	-1.187858e+002	1.273981e+001	-1.621083e+002	-5.066919e+000	-1.217240e+002
1357787500	-4.147231e+000	2.908646e+001	-3.062115e+001	-1.197267e+002	1.278472e+001	-1.635153e+002	-5.059249e+000	-1.229312e+002
1368400000	-4.135535e+000	2.795757e+001	-3.062971e+001	-1.206817e+002	1.281475e+001	-1.649369e+002	-5.053386e+000	-1.241504e+002
1379012500	-4.125447e+000	2.686508e+001	-3.062810e+001	-1.216779e+002	1.282854e+001	-1.663859e+002	-5.052457e+000	-1.253713e+002
1389625000	-4.118521e+000	2.583280e+001	-3.062952e+001	-1.226737e+002	1.282817e+001	-1.678663e+002	-5.055407e+000	-1.265678e+002
1400237500	-4.115955e+000	2.485125e+001	-3.063020e+001	-1.236585e+002	1.282079e+001	-1.693359e+002	-5.063671e+000	-1.277325e+002
1410850000	-4.112475e+000	2.384350e+001	-3.063547e+001	-1.246736e+002	1.280570e+001	-1.707749e+002	-5.070925e+000	-1.288618e+002
1421462500	-4.114414e+000	2.276416e+001	-3.063183e+001	-1.256855e+002	1.280109e+001	-1.722139e+002	-5.075998e+000	-1.299827e+002
1432075000	-4.127538e+000	2.163633e+001	-3.061905e+001	-1.267577e+002	1.280796e+001	-1.736805e+002	-5.084244e+000	-1.310562e+002
1442687500	-4.149926e+000	2.042866e+001	-3.060207e+001	-1.278632e+002	1.280833e+001	-1.751553e+002	-5.095313e+000	-1.320980e+002
1453300000	-4.178922e+000	1.913069e+001	-3.058937e+001	-1.290014e+002	1.279873e+001	-1.766252e+002	-5.106839e+000	-1.331106e+002
1463912500	-4.214159e+000	1.771515e+001	-3.057716e+001	-1.301809e+002	1.278128e+001	-1.781499e+002	-5.113160e+000	-1.341183e+002
1474525000	-4.254076e+000	1.616732e+001	-3.057428e+001	-1.314002e+002	1.276270e+001	-1.797212e+002	-5.109939e+000	-1.351492e+002
1485137500	-4.296280e+000	1.450872e+001	-3.057982e+001	-1.326631e+002	1.275412e+001	1.787309e+002	-5.096220e+000	-1.362102e+002
1495750000	-4.332271e+000	1.277514e+001	-3.059380e+001	-1.338645e+002	1.276408e+001	1.772557e+002	-5.073034e+000	-1.373115e+002
1506362500	-4.359249e+000	1.098521e+001	-3.061991e+001	-1.349743e+002	1.279612e+001	1.758194e+002	-5.039252e+000	-1.385191e+002
1516975000	-4.374625e+000	9.175837e+000	-3.065543e+001	-1.360845e+002	1.283698e+001	1.743124e+002	-5.006446e+000	-1.398302e+002
1527587500	-4.381021e+000	7.438329e+000	-3.069279e+001	-1.371653e+002	1.286513e+001	1.727708e+002	-4.982189e+000	-1.411898e+002
1538200000	-4.372085e+000	5.853335e+000	-3.075189e+001	-1.381935e+002	1.288712e+001	1.713037e+002	-4.972005e+000	-1.425123e+002
1548812500	-4.342607e+000	4.493573e+000	-3.082178e+001	-1.390648e+002	1.291177e+001	1.699588e+002	-4.971401e+000	-1.437768e+002
1559425000	-4.295516e+000	3.373960e+000	-3.089407e+001	-1.397859e+002	1.294087e+001	1.687089e+002	-4.977463e+000	-1.450018e+002
1570037500	-4.235801e+000	2.494704e+000	-3.094659e+001	-1.404398e+002	1.296727e+001	1.674652e+002	-4.993386e+000	-1.462325e+002
1580650000	-4.168743e+000	1.838659e+000	-3.098881e+001	-1.411798e+002	1.299578e+001	1.662236e+002	-5.022304e+000	-1.474270e+002
1591262500	-4.104576e+000	1.368005e+000	-3.101414e+001	-1.419806e+002	1.302951e+001	1.649487e+002	-5.064074e+000	-1.485557e+002
1601875000	-4.055196e+000	9.701146e-001	-3.101226e+001	-1.429348e+002	1.304787e+001	1.635310e+002	-5.116504e+000	-1.496045e+002
1612487500	-4.045109e+000	6.009863e-001	-3.099597e+001	-1.442104e+002	1.302119e+001	1.618034e+002	-5.186681e+000	-1.505446e+002
1623100000	-4.101430e+000	3.807586e-001	-3.096837e+001	-1.458494e+002	1.291269e+001	1.597251e+002	-5.270001e+000	-1.512517e+002
