!Agilent Technologies,E5071B,MY42403545,A.09.10
!Date: Thu Jul 18 07:37:41 2019
!Data & Calibration Information:
!Freq	S11:SOLT2(ON)	S21:SOLT2(ON)	S12:SOLT2(ON)	S22:SOLT2(ON)
# Hz S dB R 50
10000000	-8.229695e-001	-3.332275e+001	-3.719051e+001	9.802239e+001	5.481659e+000	9.731275e+001	-2.407033e+000	-1.193087e+001
20612500	-1.610887e+000	-6.084892e+001	-3.323345e+001	5.559817e+001	9.277364e+000	5.452642e+001	-3.104237e+000	-1.954751e+001
31225000	-2.409284e+000	-8.164463e+001	-3.163422e+001	3.548245e+001	1.053544e+001	3.336814e+001	-4.091473e+000	-2.362904e+001
41837500	-2.784269e+000	-9.820087e+001	-3.151034e+001	2.240289e+001	1.030250e+001	1.960913e+001	-5.199738e+000	-2.656508e+001
52450000	-3.074699e+000	-1.116705e+002	-3.159271e+001	1.501091e+001	1.003445e+001	1.198996e+001	-6.091108e+000	-2.677748e+001
63062500	-3.286261e+000	-1.228508e+002	-3.175147e+001	1.073059e+001	9.749810e+000	7.550795e+000	-6.788357e+000	-2.581966e+001
73675000	-3.571575e+000	-1.330054e+002	-3.176366e+001	1.015626e+001	9.675079e+000	6.851003e+000	-7.267613e+000	-2.319426e+001
84287500	-4.002860e+000	-1.379208e+002	-3.106116e+001	4.603808e+000	1.051435e+001	8.743394e-001	-7.033851e+000	-2.314162e+001
94900000	-3.843394e+000	-1.436188e+002	-3.145881e+001	1.899998e-001	9.920155e+000	-3.875742e+000	-7.519104e+000	-2.386245e+001
105512500	-3.817472e+000	-1.492434e+002	-3.169533e+001	-1.870792e+000	9.607655e+000	-6.075872e+000	-7.827281e+000	-2.325498e+001
116125000	-3.837835e+000	-1.542313e+002	-3.182163e+001	-3.292290e+000	9.436322e+000	-7.727990e+000	-8.026813e+000	-2.255981e+001
126737500	-3.861316e+000	-1.586516e+002	-3.190335e+001	-4.569990e+000	9.338872e+000	-9.196011e+000	-8.170548e+000	-2.196988e+001
137350000	-3.882403e+000	-1.626394e+002	-3.196528e+001	-5.660400e+000	9.277712e+000	-1.049586e+001	-8.281955e+000	-2.145287e+001
147962500	-3.903434e+000	-1.663174e+002	-3.200332e+001	-6.585653e+000	9.256781e+000	-1.160645e+001	-8.361388e+000	-2.096376e+001
158575000	-3.939497e+000	-1.698214e+002	-3.200787e+001	-7.218425e+000	9.275249e+000	-1.244527e+001	-8.395857e+000	-2.042948e+001
169187500	-4.040141e+000	-1.725391e+002	-3.185911e+001	-8.751511e+000	9.460385e+000	-1.423923e+001	-8.324670e+000	-2.058237e+001
179800000	-3.997108e+000	-1.751366e+002	-3.197249e+001	-1.027225e+001	9.326626e+000	-1.605123e+001	-8.413297e+000	-2.077601e+001
190412500	-3.989468e+000	-1.778372e+002	-3.202275e+001	-1.116557e+001	9.250956e+000	-1.723587e+001	-8.451517e+000	-2.069714e+001
201025000	-3.988789e+000	1.795764e+002	-3.204187e+001	-1.200312e+001	9.204426e+000	-1.831308e+001	-8.462019e+000	-2.064444e+001
211637500	-3.995185e+000	1.771235e+002	-3.204904e+001	-1.281594e+001	9.181382e+000	-1.936042e+001	-8.454686e+000	-2.064680e+001
222250000	-4.004736e+000	1.747773e+002	-3.205273e+001	-1.363866e+001	9.162994e+000	-2.041529e+001	-8.437922e+000	-2.072124e+001
232862500	-4.011971e+000	1.725295e+002	-3.204485e+001	-1.448845e+001	9.172097e+000	-2.151202e+001	-8.410984e+000	-2.088935e+001
243475000	-4.021272e+000	1.703634e+002	-3.203005e+001	-1.531050e+001	9.198759e+000	-2.261111e+001	-8.382643e+000	-2.111900e+001
254087500	-4.037634e+000	1.682645e+002	-3.200510e+001	-1.610151e+001	9.240561e+000	-2.365066e+001	-8.346672e+000	-2.137233e+001
264700000	-4.060204e+000	1.663254e+002	-3.197451e+001	-1.714391e+001	9.303649e+000	-2.489320e+001	-8.309721e+000	-2.178283e+001
275312500	-4.059270e+000	1.644538e+002	-3.198580e+001	-1.812654e+001	9.325581e+000	-2.614705e+001	-8.289566e+000	-2.218008e+001
285925000	-4.059392e+000	1.625713e+002	-3.197572e+001	-1.889882e+001	9.352422e+000	-2.724713e+001	-8.255309e+000	-2.257270e+001
296537500	-4.059940e+000	1.607103e+002	-3.195809e+001	-1.969457e+001	9.383284e+000	-2.830329e+001	-8.216363e+000	-2.299004e+001
307150000	-4.066052e+000	1.588887e+002	-3.194112e+001	-2.050513e+001	9.407607e+000	-2.938710e+001	-8.177042e+000	-2.343911e+001
317762500	-4.071824e+000	1.571090e+002	-3.192218e+001	-2.135427e+001	9.421897e+000	-3.051395e+001	-8.132696e+000	-2.392140e+001
328375000	-4.076578e+000	1.553584e+002	-3.189564e+001	-2.222923e+001	9.435547e+000	-3.165517e+001	-8.081741e+000	-2.444105e+001
338987500	-4.081912e+000	1.536422e+002	-3.186934e+001	-2.309081e+001	9.451493e+000	-3.276167e+001	-8.024145e+000	-2.499400e+001
349600000	-4.087405e+000	1.519628e+002	-3.184085e+001	-2.394033e+001	9.467013e+000	-3.386447e+001	-7.964860e+000	-2.558666e+001
360212500	-4.095059e+000	1.503133e+002	-3.181709e+001	-2.479783e+001	9.489796e+000	-3.499673e+001	-7.909732e+000	-2.619238e+001
370825000	-4.103303e+000	1.486946e+002	-3.178730e+001	-2.569986e+001	9.527501e+000	-3.617763e+001	-7.853886e+000	-2.680017e+001
381437500	-4.109770e+000	1.471073e+002	-3.176138e+001	-2.663280e+001	9.582447e+000	-3.736015e+001	-7.794673e+000	-2.739792e+001
392050000	-4.115807e+000	1.455369e+002	-3.173469e+001	-2.752982e+001	9.649760e+000	-3.851998e+001	-7.730934e+000	-2.802270e+001
402662500	-4.122270e+000	1.439848e+002	-3.170879e+001	-2.838945e+001	9.723424e+000	-3.968142e+001	-7.668610e+000	-2.868591e+001
413275000	-4.128403e+000	1.424532e+002	-3.167862e+001	-2.930838e+001	9.780982e+000	-4.089942e+001	-7.613673e+000	-2.941236e+001
423887500	-4.133201e+000	1.409302e+002	-3.165532e+001	-3.027243e+001	9.825909e+000	-4.210586e+001	-7.565429e+000	-3.012220e+001
434500000	-4.137176e+000	1.394164e+002	-3.162501e+001	-3.121175e+001	9.861408e+000	-4.331874e+001	-7.515296e+000	-3.083396e+001
445112500	-4.141202e+000	1.379150e+002	-3.159773e+001	-3.212076e+001	9.883546e+000	-4.455484e+001	-7.460923e+000	-3.158202e+001
455725000	-4.146908e+000	1.364279e+002	-3.156359e+001	-3.302276e+001	9.904151e+000	-4.578583e+001	-7.404447e+000	-3.237433e+001
466337500	-4.152672e+000	1.349488e+002	-3.153574e+001	-3.395042e+001	9.926473e+000	-4.698563e+001	-7.349524e+000	-3.317741e+001
476950000	-4.158536e+000	1.334819e+002	-3.151023e+001	-3.491176e+001	9.964864e+000	-4.819311e+001	-7.302125e+000	-3.399982e+001
487562500	-4.165455e+000	1.320331e+002	-3.148223e+001	-3.588619e+001	1.001788e+001	-4.944163e+001	-7.258788e+000	-3.483385e+001
498175000	-4.172323e+000	1.306080e+002	-3.145298e+001	-3.682550e+001	1.007981e+001	-5.072876e+001	-7.216096e+000	-3.566898e+001
508787500	-4.177352e+000	1.291996e+002	-3.142709e+001	-3.774921e+001	1.013776e+001	-5.197182e+001	-7.165852e+000	-3.650263e+001
519400000	-4.182214e+000	1.278025e+002	-3.140061e+001	-3.873644e+001	1.019022e+001	-5.319890e+001	-7.109114e+000	-3.736977e+001
530012500	-4.185867e+000	1.264160e+002	-3.137628e+001	-3.973281e+001	1.024550e+001	-5.440426e+001	-7.053820e+000	-3.827892e+001
540625000	-4.189906e+000	1.250423e+002	-3.135474e+001	-4.072288e+001	1.030297e+001	-5.564036e+001	-7.000128e+000	-3.921031e+001
551237500	-4.190520e+000	1.236713e+002	-3.132760e+001	-4.167560e+001	1.035362e+001	-5.706654e+001	-6.949406e+000	-4.021300e+001
561850000	-4.193048e+000	1.223068e+002	-3.130611e+001	-4.263886e+001	1.036792e+001	-5.845224e+001	-6.905407e+000	-4.120230e+001
572462500	-4.195673e+000	1.209374e+002	-3.128335e+001	-4.362223e+001	1.038490e+001	-5.964539e+001	-6.856109e+000	-4.211301e+001
583075000	-4.198405e+000	1.195695e+002	-3.125977e+001	-4.463332e+001	1.043095e+001	-6.077273e+001	-6.800093e+000	-4.299082e+001
593687500	-4.204860e+000	1.182147e+002	-3.123872e+001	-4.560640e+001	1.050497e+001	-6.205101e+001	-6.739492e+000	-4.394970e+001
604300000	-4.209837e+000	1.168727e+002	-3.121761e+001	-4.654391e+001	1.055402e+001	-6.358165e+001	-6.690728e+000	-4.500313e+001
614912500	-4.215460e+000	1.155276e+002	-3.119085e+001	-4.752235e+001	1.058893e+001	-6.494789e+001	-6.645671e+000	-4.597160e+001
625525000	-4.219700e+000	1.141841e+002	-3.116952e+001	-4.850833e+001	1.063412e+001	-6.625596e+001	-6.597145e+000	-4.691472e+001
636137500	-4.228461e+000	1.128633e+002	-3.113932e+001	-4.951165e+001	1.068688e+001	-6.757782e+001	-6.550216e+000	-4.788989e+001
646750000	-4.232216e+000	1.115467e+002	-3.111793e+001	-5.049728e+001	1.074590e+001	-6.891466e+001	-6.506700e+000	-4.887504e+001
657362500	-4.239268e+000	1.102564e+002	-3.109473e+001	-5.147400e+001	1.078208e+001	-7.031544e+001	-6.468920e+000	-4.986830e+001
667975000	-4.243694e+000	1.089629e+002	-3.107221e+001	-5.248727e+001	1.079831e+001	-7.170712e+001	-6.432837e+000	-5.084662e+001
678587500	-4.245856e+000	1.076771e+002	-3.104899e+001	-5.353206e+001	1.080082e+001	-7.303101e+001	-6.392152e+000	-5.182881e+001
689200000	-4.245190e+000	1.063862e+002	-3.102962e+001	-5.455210e+001	1.081825e+001	-7.433099e+001	-6.348078e+000	-5.283002e+001
699812500	-4.244944e+000	1.051027e+002	-3.100906e+001	-5.555069e+001	1.085133e+001	-7.562288e+001	-6.303704e+000	-5.385654e+001
710425000	-4.244077e+000	1.038131e+002	-3.098541e+001	-5.656459e+001	1.090475e+001	-7.701387e+001	-6.263478e+000	-5.490640e+001
721037500	-4.243061e+000	1.025147e+002	-3.096749e+001	-5.757259e+001	1.097140e+001	-7.846655e+001	-6.226986e+000	-5.596714e+001
731650000	-4.243839e+000	1.012222e+002	-3.094625e+001	-5.865916e+001	1.105027e+001	-7.991264e+001	-6.191907e+000	-5.703417e+001
742262500	-4.243194e+000	9.992908e+001	-3.092974e+001	-5.971088e+001	1.113368e+001	-8.133597e+001	-6.160515e+000	-5.809342e+001
752875000	-4.242532e+000	9.863190e+001	-3.091385e+001	-6.070069e+001	1.120287e+001	-8.271083e+001	-6.129781e+000	-5.913735e+001
763487500	-4.245462e+000	9.735366e+001	-3.089841e+001	-6.173622e+001	1.125087e+001	-8.404222e+001	-6.096671e+000	-6.017634e+001
774100000	-4.247628e+000	9.607279e+001	-3.088532e+001	-6.281526e+001	1.127995e+001	-8.535412e+001	-6.060195e+000	-6.122405e+001
784712500	-4.254236e+000	9.481685e+001	-3.086989e+001	-6.386927e+001	1.129632e+001	-8.668682e+001	-6.018344e+000	-6.229970e+001
795325000	-4.259711e+000	9.356635e+001	-3.085967e+001	-6.493143e+001	1.130249e+001	-8.809506e+001	-5.971970e+000	-6.343818e+001
805937500	-4.264797e+000	9.234511e+001	-3.085009e+001	-6.593150e+001	1.129842e+001	-8.955414e+001	-5.926127e+000	-6.464703e+001
816550000	-4.267626e+000	9.111636e+001	-3.083702e+001	-6.693283e+001	1.129532e+001	-9.103964e+001	-5.889660e+000	-6.586375e+001
827162500	-4.269789e+000	8.989085e+001	-3.082662e+001	-6.793876e+001	1.129274e+001	-9.244386e+001	-5.867810e+000	-6.699664e+001
837775000	-4.273688e+000	8.868248e+001	-3.080746e+001	-6.896248e+001	1.133292e+001	-9.376703e+001	-5.849104e+000	-6.799426e+001
848387500	-4.274388e+000	8.746236e+001	-3.079574e+001	-6.997602e+001	1.140541e+001	-9.514617e+001	-5.817572e+000	-6.899779e+001
859000000	-4.275275e+000	8.623957e+001	-3.078059e+001	-7.098602e+001	1.148988e+001	-9.655911e+001	-5.781751e+000	-7.004473e+001
869612500	-4.271270e+000	8.499392e+001	-3.076345e+001	-7.202950e+001	1.156894e+001	-9.800687e+001	-5.747194e+000	-7.112668e+001
880225000	-4.269571e+000	8.374479e+001	-3.074797e+001	-7.309446e+001	1.164407e+001	-9.951794e+001	-5.715886e+000	-7.224432e+001
890837500	-4.267272e+000	8.249025e+001	-3.073693e+001	-7.413177e+001	1.168619e+001	-1.010414e+002	-5.697388e+000	-7.337459e+001
901450000	-4.264484e+000	8.123720e+001	-3.072455e+001	-7.515955e+001	1.167954e+001	-1.024279e+002	-5.695753e+000	-7.441609e+001
912062500	-4.262576e+000	7.998855e+001	-3.071357e+001	-7.619328e+001	1.165573e+001	-1.037280e+002	-5.687443e+000	-7.542105e+001
922675000	-4.259900e+000	7.873631e+001	-3.070014e+001	-7.722258e+001	1.163477e+001	-1.050264e+002	-5.668895e+000	-7.646735e+001
933287500	-4.257641e+000	7.748811e+001	-3.068889e+001	-7.828562e+001	1.163135e+001	-1.063471e+002	-5.640029e+000	-7.756143e+001
943900000	-4.255448e+000	7.625464e+001	-3.067936e+001	-7.932332e+001	1.165294e+001	-1.077528e+002	-5.605968e+000	-7.872491e+001
954512500	-4.255392e+000	7.504988e+001	-3.067086e+001	-8.035289e+001	1.169303e+001	-1.092076e+002	-5.574236e+000	-7.992118e+001
965125000	-4.254585e+000	7.384495e+001	-3.066145e+001	-8.138880e+001	1.174126e+001	-1.106837e+002	-5.544513e+000	-8.111699e+001
975737500	-4.254993e+000	7.264306e+001	-3.065176e+001	-8.244113e+001	1.180824e+001	-1.121515e+002	-5.517958e+000	-8.228880e+001
986350000	-4.253111e+000	7.144670e+001	-3.064156e+001	-8.350373e+001	1.189552e+001	-1.136295e+002	-5.492486e+000	-8.345100e+001
996962500	-4.252355e+000	7.026823e+001	-3.062923e+001	-8.458335e+001	1.197969e+001	-1.150991e+002	-5.469314e+000	-8.461760e+001
1007575000	-4.252218e+000	6.909095e+001	-3.062369e+001	-8.567459e+001	1.204449e+001	-1.165207e+002	-5.452562e+000	-8.576736e+001
1018187500	-4.255863e+000	6.791227e+001	-3.063042e+001	-8.675691e+001	1.208190e+001	-1.179546e+002	-5.436585e+000	-8.687845e+001
1028800000	-4.254929e+000	6.671281e+001	-3.063308e+001	-8.780958e+001	1.208947e+001	-1.193820e+002	-5.417953e+000	-8.798836e+001
1039412500	-4.256896e+000	6.549193e+001	-3.063246e+001	-8.883183e+001	1.207765e+001	-1.208157e+002	-5.401177e+000	-8.911320e+001
1050025000	-4.257676e+000	6.427271e+001	-3.062845e+001	-8.977156e+001	1.204890e+001	-1.222463e+002	-5.387931e+000	-9.022662e+001
1060637500	-4.259673e+000	6.305582e+001	-3.062006e+001	-9.076319e+001	1.201644e+001	-1.236623e+002	-5.374292e+000	-9.133169e+001
1071250000	-4.262126e+000	6.182977e+001	-3.061199e+001	-9.180139e+001	1.200039e+001	-1.250881e+002	-5.361773e+000	-9.242550e+001
1081862500	-4.264389e+000	6.060850e+001	-3.060321e+001	-9.283742e+001	1.200921e+001	-1.265109e+002	-5.351328e+000	-9.350376e+001
1092475000	-4.264990e+000	5.939899e+001	-3.059358e+001	-9.389601e+001	1.203650e+001	-1.279215e+002	-5.341948e+000	-9.456842e+001
1103087500	-4.261752e+000	5.821586e+001	-3.058654e+001	-9.488006e+001	1.207390e+001	-1.293123e+002	-5.332024e+000	-9.562925e+001
1113700000	-4.252862e+000	5.704313e+001	-3.058443e+001	-9.595610e+001	1.211287e+001	-1.307216e+002	-5.318253e+000	-9.670821e+001
1124312500	-4.240021e+000	5.584654e+001	-3.058228e+001	-9.697150e+001	1.215760e+001	-1.321159e+002	-5.298994e+000	-9.780861e+001
1134925000	-4.227090e+000	5.460953e+001	-3.057746e+001	-9.799602e+001	1.221100e+001	-1.335242e+002	-5.279415e+000	-9.895385e+001
1145537500	-4.213358e+000	5.337931e+001	-3.057134e+001	-9.905269e+001	1.226642e+001	-1.349337e+002	-5.261536e+000	-1.001210e+002
1156150000	-4.203494e+000	5.217661e+001	-3.056770e+001	-1.001045e+002	1.231596e+001	-1.363430e+002	-5.245065e+000	-1.013070e+002
1166762500	-4.196895e+000	5.097119e+001	-3.056827e+001	-1.011377e+002	1.236249e+001	-1.377947e+002	-5.231517e+000	-1.025081e+002
1177375000	-4.194547e+000	4.977443e+001	-3.057042e+001	-1.022259e+002	1.239831e+001	-1.392730e+002	-5.221278e+000	-1.036991e+002
1187987500	-4.193605e+000	4.860003e+001	-3.057663e+001	-1.032587e+002	1.242413e+001	-1.407559e+002	-5.211632e+000	-1.048662e+002
1198600000	-4.194587e+000	4.745837e+001	-3.058094e+001	-1.042783e+002	1.243396e+001	-1.422133e+002	-5.201999e+000	-1.060279e+002
1209212500	-4.193213e+000	4.631915e+001	-3.058588e+001	-1.052725e+002	1.243722e+001	-1.436175e+002	-5.189810e+000	-1.071913e+002
1219825000	-4.194453e+000	4.515333e+001	-3.058677e+001	-1.062810e+002	1.245269e+001	-1.450264e+002	-5.175383e+000	-1.083652e+002
1230437500	-4.200970e+000	4.398619e+001	-3.057873e+001	-1.072746e+002	1.247112e+001	-1.464852e+002	-5.166021e+000	-1.095212e+002
1241050000	-4.208271e+000	4.281571e+001	-3.056919e+001	-1.082907e+002	1.248678e+001	-1.479647e+002	-5.162686e+000	-1.106396e+002
1251662500	-4.213324e+000	4.163876e+001	-3.055811e+001	-1.093100e+002	1.249266e+001	-1.494095e+002	-5.163824e+000	-1.117102e+002
1262275000	-4.217503e+000	4.044144e+001	-3.054989e+001	-1.103745e+002	1.247485e+001	-1.508413e+002	-5.165156e+000	-1.127560e+002
1272887500	-4.219143e+000	3.921376e+001	-3.054546e+001	-1.114659e+002	1.244760e+001	-1.522873e+002	-5.161906e+000	-1.138058e+002
1283500000	-4.218522e+000	3.796347e+001	-3.054926e+001	-1.125903e+002	1.242385e+001	-1.537092e+002	-5.153837e+000	-1.148720e+002
1294112500	-4.212921e+000	3.668829e+001	-3.055133e+001	-1.136702e+002	1.241817e+001	-1.550701e+002	-5.142586e+000	-1.159638e+002
1304725000	-4.202933e+000	3.539729e+001	-3.056108e+001	-1.147012e+002	1.245172e+001	-1.563898e+002	-5.128356e+000	-1.170496e+002
1315337500	-4.192405e+000	3.408026e+001	-3.057064e+001	-1.157582e+002	1.251267e+001	-1.577970e+002	-5.109789e+000	-1.181948e+002
1325950000	-4.181639e+000	3.276029e+001	-3.058475e+001	-1.168026e+002	1.258409e+001	-1.592668e+002	-5.092648e+000	-1.193717e+002
1336562500	-4.170983e+000	3.147088e+001	-3.059507e+001	-1.178311e+002	1.265033e+001	-1.607297e+002	-5.076766e+000	-1.205651e+002
1347175000	-4.157873e+000	3.024136e+001	-3.060631e+001	-1.188115e+002	1.271333e+001	-1.621621e+002	-5.065813e+000	-1.217639e+002
1357787500	-4.144573e+000	2.906541e+001	-3.061449e+001	-1.197425e+002	1.275832e+001	-1.635749e+002	-5.057892e+000	-1.229753e+002
1368400000	-4.134701e+000	2.793671e+001	-3.061985e+001	-1.206961e+002	1.278804e+001	-1.649955e+002	-5.051972e+000	-1.241958e+002
1379012500	-4.125536e+000	2.684360e+001	-3.061746e+001	-1.216918e+002	1.280133e+001	-1.664527e+002	-5.050740e+000	-1.254216e+002
1389625000	-4.122296e+000	2.582241e+001	-3.062144e+001	-1.227206e+002	1.280131e+001	-1.679299e+002	-5.053419e+000	-1.266180e+002
1400237500	-4.119181e+000	2.483465e+001	-3.062497e+001	-1.237389e+002	1.279408e+001	-1.694001e+002	-5.061948e+000	-1.277858e+002
1410850000	-4.113672e+000	2.382564e+001	-3.063000e+001	-1.247354e+002	1.277940e+001	-1.708454e+002	-5.069684e+000	-1.289167e+002
1421462500	-4.117826e+000	2.275495e+001	-3.062553e+001	-1.257302e+002	1.277299e+001	-1.722856e+002	-5.075188e+000	-1.300394e+002
1432075000	-4.130954e+000	2.162558e+001	-3.061915e+001	-1.267858e+002	1.277895e+001	-1.737581e+002	-5.084046e+000	-1.311158e+002
1442687500	-4.153016e+000	2.041149e+001	-3.060353e+001	-1.278858e+002	1.277858e+001	-1.752337e+002	-5.095515e+000	-1.321502e+002
1453300000	-4.181535e+000	1.910896e+001	-3.058562e+001	-1.290085e+002	1.276763e+001	-1.766985e+002	-5.107709e+000	-1.331583e+002
1463912500	-4.216266e+000	1.769013e+001	-3.057481e+001	-1.301925e+002	1.275045e+001	-1.782177e+002	-5.114049e+000	-1.341576e+002
1474525000	-4.255840e+000	1.614076e+001	-3.056875e+001	-1.314279e+002	1.273190e+001	-1.797851e+002	-5.110829e+000	-1.351872e+002
1485137500	-4.296731e+000	1.447993e+001	-3.057129e+001	-1.326833e+002	1.272346e+001	1.786689e+002	-5.096660e+000	-1.362413e+002
1495750000	-4.330928e+000	1.274209e+001	-3.058557e+001	-1.338928e+002	1.273499e+001	1.772017e+002	-5.072159e+000	-1.373396e+002
1506362500	-4.355796e+000	1.094704e+001	-3.061474e+001	-1.350424e+002	1.276715e+001	1.757624e+002	-5.038328e+000	-1.385502e+002
1516975000	-4.369607e+000	9.136424e+000	-3.064780e+001	-1.361177e+002	1.280807e+001	1.742527e+002	-5.004205e+000	-1.398647e+002
1527587500	-4.374472e+000	7.393024e+000	-3.068683e+001	-1.372020e+002	1.283818e+001	1.727088e+002	-4.979148e+000	-1.412311e+002
1538200000	-4.365220e+000	5.811915e+000	-3.074312e+001	-1.382320e+002	1.286292e+001	1.712365e+002	-4.969383e+000	-1.425667e+002
1548812500	-4.334647e+000	4.454666e+000	-3.081555e+001	-1.391241e+002	1.288847e+001	1.698936e+002	-4.969041e+000	-1.438370e+002
1559425000	-4.288816e+000	3.332162e+000	-3.088559e+001	-1.398475e+002	1.291871e+001	1.686272e+002	-4.976417e+000	-1.450676e+002
1570037500	-4.230197e+000	2.468175e+000	-3.093704e+001	-1.405331e+002	1.294498e+001	1.673724e+002	-4.993910e+000	-1.462955e+002
1580650000	-4.167876e+000	1.829484e+000	-3.098241e+001	-1.412858e+002	1.297252e+001	1.661306e+002	-5.023440e+000	-1.474804e+002
1591262500	-4.103783e+000	1.357851e+000	-3.100697e+001	-1.420837e+002	1.300481e+001	1.648473e+002	-5.064680e+000	-1.485982e+002
1601875000	-4.055523e+000	9.719156e-001	-3.101401e+001	-1.429969e+002	1.302250e+001	1.634306e+002	-5.116332e+000	-1.496459e+002
1612487500	-4.046505e+000	6.072745e-001	-3.099787e+001	-1.442568e+002	1.299439e+001	1.617070e+002	-5.186967e+000	-1.505795e+002
1623100000	-4.101434e+000	3.785001e-001	-3.097108e+001	-1.458994e+002	1.288385e+001	1.596349e+002	-5.269682e+000	-1.512840e+002
