!Agilent Technologies,E5071B,MY42403545,A.09.10
!Date: Thu Jul 11 05:33:54 2019
!Data & Calibration Information:
!Freq	S11:SOLT2(ON)	S21:SOLT2(ON)	S12:SOLT2(ON)	S22:SOLT2(ON)
# Hz S dB R 50
3500000000	-1.031107e+001	-1.379902e+002	-3.324636e+001	-1.044198e+002	-3.354665e+001	-1.040084e+002	-1.111486e+001	-1.518112e+002
3505000000	-1.024804e+001	-1.390128e+002	-3.314181e+001	-1.078524e+002	-3.345429e+001	-1.072553e+002	-1.106117e+001	-1.529290e+002
3510000000	-1.018513e+001	-1.400294e+002	-3.302739e+001	-1.118551e+002	-3.334590e+001	-1.108589e+002	-1.102320e+001	-1.540846e+002
3515000000	-1.012203e+001	-1.410544e+002	-3.295373e+001	-1.163166e+002	-3.325132e+001	-1.149101e+002	-1.099886e+001	-1.552678e+002
3520000000	-1.006184e+001	-1.420645e+002	-3.294221e+001	-1.210730e+002	-3.319907e+001	-1.193472e+002	-1.098668e+001	-1.564413e+002
3525000000	-1.000147e+001	-1.430748e+002	-3.301536e+001	-1.259312e+002	-3.322604e+001	-1.239977e+002	-1.098348e+001	-1.575917e+002
3530000000	-9.942538e+000	-1.440975e+002	-3.318313e+001	-1.306208e+002	-3.334957e+001	-1.285085e+002	-1.098945e+001	-1.587452e+002
3535000000	-9.884627e+000	-1.451135e+002	-3.343350e+001	-1.346659e+002	-3.354786e+001	-1.323766e+002	-1.100416e+001	-1.598865e+002
3540000000	-9.829977e+000	-1.461065e+002	-3.367540e+001	-1.377100e+002	-3.373098e+001	-1.353213e+002	-1.102372e+001	-1.609818e+002
3545000000	-9.779382e+000	-1.470580e+002	-3.380425e+001	-1.400530e+002	-3.379865e+001	-1.376186e+002	-1.104052e+001	-1.620037e+002
3550000000	-9.726950e+000	-1.479840e+002	-3.378005e+001	-1.424256e+002	-3.372082e+001	-1.400471e+002	-1.104186e+001	-1.629945e+002
3555000000	-9.675852e+000	-1.488800e+002	-3.366623e+001	-1.454191e+002	-3.355709e+001	-1.431077e+002	-1.102830e+001	-1.640254e+002
3560000000	-9.625525e+000	-1.497622e+002	-3.353625e+001	-1.490854e+002	-3.337732e+001	-1.468800e+002	-1.100239e+001	-1.651755e+002
3565000000	-9.575676e+000	-1.506231e+002	-3.342671e+001	-1.533049e+002	-3.321498e+001	-1.512738e+002	-1.097688e+001	-1.664799e+002
3570000000	-9.524891e+000	-1.514846e+002	-3.335640e+001	-1.579669e+002	-3.309905e+001	-1.562264e+002	-1.096359e+001	-1.678920e+002
3575000000	-9.473624e+000	-1.523508e+002	-3.335526e+001	-1.630835e+002	-3.307241e+001	-1.616539e+002	-1.096439e+001	-1.693474e+002
3580000000	-9.421766e+000	-1.532275e+002	-3.346655e+001	-1.684244e+002	-3.317366e+001	-1.672781e+002	-1.097399e+001	-1.707768e+002
3585000000	-9.369200e+000	-1.541434e+002	-3.371243e+001	-1.735855e+002	-3.341683e+001	-1.726412e+002	-1.098538e+001	-1.721676e+002
3590000000	-9.319424e+000	-1.551014e+002	-3.407796e+001	-1.781826e+002	-3.376546e+001	-1.773070e+002	-1.099491e+001	-1.735273e+002
3595000000	-9.279205e+000	-1.561007e+002	-3.451940e+001	1.783076e+002	-3.417154e+001	1.789485e+002	-1.100342e+001	-1.748604e+002
3600000000	-9.248463e+000	-1.570921e+002	-3.494308e+001	1.762306e+002	-3.456331e+001	1.763631e+002	-1.100984e+001	-1.762059e+002
3605000000	-9.229991e+000	-1.580438e+002	-3.520325e+001	1.753738e+002	-3.483932e+001	1.748464e+002	-1.101701e+001	-1.775732e+002
3610000000	-9.213346e+000	-1.589412e+002	-3.520168e+001	1.746837e+002	-3.491280e+001	1.737301e+002	-1.102564e+001	-1.789415e+002
3615000000	-9.195149e+000	-1.597779e+002	-3.498848e+001	1.731211e+002	-3.479593e+001	1.721243e+002	-1.103999e+001	1.796794e+002
3620000000	-9.168162e+000	-1.605985e+002	-3.471513e+001	1.701118e+002	-3.458518e+001	1.694531e+002	-1.105614e+001	1.783018e+002
3625000000	-9.132501e+000	-1.614160e+002	-3.450685e+001	1.659868e+002	-3.439703e+001	1.657556e+002	-1.107544e+001	1.769157e+002
3630000000	-9.090976e+000	-1.622483e+002	-3.442932e+001	1.613426e+002	-3.428481e+001	1.614125e+002	-1.109715e+001	1.755170e+002
3635000000	-9.044338e+000	-1.631473e+002	-3.446158e+001	1.566762e+002	-3.426190e+001	1.568029e+002	-1.112833e+001	1.741350e+002
3640000000	-9.000557e+000	-1.641115e+002	-3.458464e+001	1.522950e+002	-3.433888e+001	1.522247e+002	-1.116455e+001	1.728016e+002
3645000000	-8.959364e+000	-1.651173e+002	-3.475517e+001	1.483864e+002	-3.450650e+001	1.479230e+002	-1.119918e+001	1.715295e+002
3650000000	-8.925703e+000	-1.661700e+002	-3.493204e+001	1.449891e+002	-3.471881e+001	1.441088e+002	-1.122414e+001	1.703119e+002
3655000000	-8.900402e+000	-1.672652e+002	-3.508728e+001	1.420114e+002	-3.492313e+001	1.408692e+002	-1.123231e+001	1.690973e+002
3660000000	-8.886688e+000	-1.683514e+002	-3.519889e+001	1.393480e+002	-3.509849e+001	1.381265e+002	-1.123030e+001	1.678193e+002
3665000000	-8.883582e+000	-1.694376e+002	-3.524963e+001	1.369684e+002	-3.520259e+001	1.357316e+002	-1.122688e+001	1.664613e+002
3670000000	-8.888762e+000	-1.704726e+002	-3.520302e+001	1.345548e+002	-3.519330e+001	1.333927e+002	-1.122995e+001	1.650555e+002
3675000000	-8.895293e+000	-1.714544e+002	-3.506362e+001	1.317364e+002	-3.505876e+001	1.308121e+002	-1.123797e+001	1.636058e+002
3680000000	-8.897035e+000	-1.723916e+002	-3.487992e+001	1.282063e+002	-3.488741e+001	1.275561e+002	-1.125090e+001	1.621671e+002
3685000000	-8.890867e+000	-1.733265e+002	-3.472167e+001	1.238060e+002	-3.474580e+001	1.234000e+002	-1.126935e+001	1.607714e+002
3690000000	-8.872818e+000	-1.742940e+002	-3.466432e+001	1.188123e+002	-3.468579e+001	1.185116e+002	-1.129058e+001	1.594197e+002
3695000000	-8.853084e+000	-1.753356e+002	-3.474879e+001	1.136811e+002	-3.475076e+001	1.134522e+002	-1.131244e+001	1.581237e+002
3700000000	-8.837542e+000	-1.764463e+002	-3.496178e+001	1.089343e+002	-3.494579e+001	1.086910e+002	-1.133184e+001	1.568256e+002
3705000000	-8.828320e+000	-1.775906e+002	-3.525179e+001	1.049633e+002	-3.521554e+001	1.045312e+002	-1.135123e+001	1.555255e+002
3710000000	-8.825836e+000	-1.787188e+002	-3.554724e+001	1.018346e+002	-3.550288e+001	1.011212e+002	-1.137070e+001	1.542373e+002
3715000000	-8.827703e+000	-1.798025e+002	-3.579189e+001	9.944830e+001	-3.575847e+001	9.842923e+001	-1.138024e+001	1.529630e+002
3720000000	-8.827457e+000	1.791639e+002	-3.593578e+001	9.760524e+001	-3.593200e+001	9.630435e+001	-1.138310e+001	1.516192e+002
3725000000	-8.822106e+000	1.781847e+002	-3.594078e+001	9.589157e+001	-3.599039e+001	9.445648e+001	-1.138172e+001	1.501453e+002
3730000000	-8.811178e+000	1.771977e+002	-3.580609e+001	9.384550e+001	-3.593216e+001	9.244320e+001	-1.138902e+001	1.485112e+002
3735000000	-8.794716e+000	1.762092e+002	-3.558353e+001	9.096433e+001	-3.578985e+001	8.990778e+001	-1.140843e+001	1.467317e+002
3740000000	-8.778463e+000	1.752083e+002	-3.534902e+001	8.711133e+001	-3.560045e+001	8.662987e+001	-1.145489e+001	1.448945e+002
3745000000	-8.763377e+000	1.741785e+002	-3.517962e+001	8.230620e+001	-3.542712e+001	8.247003e+001	-1.151654e+001	1.430885e+002
3750000000	-8.752141e+000	1.731387e+002	-3.514359e+001	7.686722e+001	-3.535702e+001	7.752474e+001	-1.158677e+001	1.413770e+002
3755000000	-8.748574e+000	1.720965e+002	-3.528841e+001	7.130345e+001	-3.545089e+001	7.230231e+001	-1.165310e+001	1.397559e+002
3760000000	-8.752136e+000	1.710645e+002	-3.561100e+001	6.635449e+001	-3.571608e+001	6.750680e+001	-1.170781e+001	1.381903e+002
3765000000	-8.761378e+000	1.700656e+002	-3.602861e+001	6.261718e+001	-3.608379e+001	6.384133e+001	-1.174883e+001	1.365774e+002
3770000000	-8.774081e+000	1.691112e+002	-3.641664e+001	6.029540e+001	-3.642016e+001	6.156145e+001	-1.178991e+001	1.349556e+002
3775000000	-8.784029e+000	1.682053e+002	-3.665078e+001	5.900392e+001	-3.659403e+001	6.025315e+001	-1.182652e+001	1.333413e+002
3780000000	-8.789989e+000	1.673173e+002	-3.666493e+001	5.795133e+001	-3.656575e+001	5.904546e+001	-1.185350e+001	1.317475e+002
3785000000	-8.785211e+000	1.663777e+002	-3.650229e+001	5.622909e+001	-3.636695e+001	5.712378e+001	-1.187799e+001	1.301706e+002
3790000000	-8.777416e+000	1.653551e+002	-3.625895e+001	5.337111e+001	-3.610381e+001	5.399197e+001	-1.188721e+001	1.285773e+002
3795000000	-8.772948e+000	1.642285e+002	-3.605075e+001	4.943325e+001	-3.588796e+001	4.978763e+001	-1.189475e+001	1.269442e+002
3800000000	-8.778672e+000	1.630406e+002	-3.593954e+001	4.482548e+001	-3.578985e+001	4.491442e+001	-1.190340e+001	1.252798e+002
3805000000	-8.799171e+000	1.618469e+002	-3.594406e+001	4.005445e+001	-3.580859e+001	3.994250e+001	-1.191935e+001	1.235977e+002
3810000000	-8.831040e+000	1.607004e+002	-3.604198e+001	3.531753e+001	-3.592535e+001	3.514088e+001	-1.194181e+001	1.219306e+002
3815000000	-8.866412e+000	1.596280e+002	-3.622702e+001	3.078814e+001	-3.611052e+001	3.060884e+001	-1.196745e+001	1.202833e+002
3820000000	-8.897293e+000	1.586140e+002	-3.649468e+001	2.663795e+001	-3.637310e+001	2.639700e+001	-1.198582e+001	1.186559e+002
3825000000	-8.922250e+000	1.576259e+002	-3.684493e+001	2.329945e+001	-3.671386e+001	2.292162e+001	-1.199536e+001	1.170090e+002
3830000000	-8.940553e+000	1.566357e+002	-3.717853e+001	2.123775e+001	-3.705585e+001	2.062758e+001	-1.199866e+001	1.152957e+002
3835000000	-8.954297e+000	1.556248e+002	-3.734602e+001	2.029413e+001	-3.724953e+001	1.941985e+001	-1.200330e+001	1.135463e+002
3840000000	-8.964994e+000	1.545789e+002	-3.727197e+001	1.934964e+001	-3.720694e+001	1.837767e+001	-1.201096e+001	1.117080e+002
3845000000	-8.976783e+000	1.534817e+002	-3.701648e+001	1.750454e+001	-3.698417e+001	1.642786e+001	-1.201875e+001	1.098506e+002
3850000000	-8.994488e+000	1.523536e+002	-3.671538e+001	1.437646e+001	-3.671079e+001	1.324808e+001	-1.202903e+001	1.079554e+002
3855000000	-9.018155e+000	1.512151e+002	-3.646950e+001	1.020819e+001	-3.649438e+001	8.979802e+000	-1.204506e+001	1.060331e+002
3860000000	-9.048758e+000	1.501051e+002	-3.632732e+001	5.297984e+000	-3.639152e+001	4.097266e+000	-1.206784e+001	1.041236e+002
3865000000	-9.081877e+000	1.490135e+002	-3.630718e+001	1.335608e-001	-3.641534e+001	-1.027879e+000	-1.209337e+001	1.022609e+002
3870000000	-9.113109e+000	1.479454e+002	-3.639621e+001	-5.029453e+000	-3.656071e+001	-6.001849e+000	-1.211588e+001	1.004424e+002
3875000000	-9.138420e+000	1.468719e+002	-3.659110e+001	-9.914934e+000	-3.680648e+001	-1.059616e+001	-1.213041e+001	9.866369e+001
3880000000	-9.157591e+000	1.457646e+002	-3.687768e+001	-1.425550e+001	-3.713629e+001	-1.451561e+001	-1.213372e+001	9.691204e+001
3885000000	-9.173780e+000	1.445963e+002	-3.722141e+001	-1.765754e+001	-3.748748e+001	-1.741003e+001	-1.213190e+001	9.514818e+001
3890000000	-9.191809e+000	1.433897e+002	-3.752849e+001	-1.990591e+001	-3.777767e+001	-1.915518e+001	-1.212484e+001	9.334669e+001
3895000000	-9.214601e+000	1.421690e+002	-3.767767e+001	-2.128547e+001	-3.787681e+001	-2.010839e+001	-1.211594e+001	9.148959e+001
3900000000	-9.239711e+000	1.409320e+002	-3.760621e+001	-2.274598e+001	-3.772014e+001	-2.123446e+001	-1.211089e+001	8.956942e+001
3905000000	-9.266391e+000	1.397224e+002	-3.737182e+001	-2.525483e+001	-3.739430e+001	-2.375646e+001	-1.211197e+001	8.759872e+001
3910000000	-9.292179e+000	1.385269e+002	-3.712003e+001	-2.923480e+001	-3.707944e+001	-2.803868e+001	-1.212179e+001	8.560752e+001
3915000000	-9.314795e+000	1.373591e+002	-3.697568e+001	-3.433824e+001	-3.692149e+001	-3.356434e+001	-1.214139e+001	8.363432e+001
3920000000	-9.335248e+000	1.361949e+002	-3.701147e+001	-4.003638e+001	-3.698143e+001	-3.951209e+001	-1.216614e+001	8.171730e+001
3925000000	-9.354776e+000	1.350343e+002	-3.725465e+001	-4.557837e+001	-3.725179e+001	-4.513576e+001	-1.219044e+001	7.981859e+001
3930000000	-9.375660e+000	1.338699e+002	-3.766078e+001	-5.024737e+001	-3.767815e+001	-4.965001e+001	-1.221153e+001	7.793035e+001
3935000000	-9.400321e+000	1.327263e+002	-3.813032e+001	-5.356678e+001	-3.814178e+001	-5.273592e+001	-1.222890e+001	7.606598e+001
3940000000	-9.426176e+000	1.316396e+002	-3.853537e+001	-5.564025e+001	-3.851081e+001	-5.456133e+001	-1.223891e+001	7.421753e+001
3945000000	-9.453752e+000	1.305933e+002	-3.880208e+001	-5.685542e+001	-3.872295e+001	-5.563715e+001	-1.224679e+001	7.243511e+001
3950000000	-9.475837e+000	1.295739e+002	-3.890144e+001	-5.773187e+001	-3.875610e+001	-5.661912e+001	-1.223300e+001	7.064957e+001
3955000000	-9.492876e+000	1.285295e+002	-3.880521e+001	-5.883052e+001	-3.860739e+001	-5.802560e+001	-1.221040e+001	6.886121e+001
3960000000	-9.508353e+000	1.274462e+002	-3.856226e+001	-6.096240e+001	-3.834867e+001	-6.055825e+001	-1.217715e+001	6.705482e+001
3965000000	-9.524333e+000	1.263261e+002	-3.829717e+001	-6.457178e+001	-3.809576e+001	-6.455369e+001	-1.213552e+001	6.521931e+001
3970000000	-9.542030e+000	1.251569e+002	-3.814898e+001	-6.940608e+001	-3.795499e+001	-6.956031e+001	-1.208907e+001	6.336253e+001
3975000000	-9.562356e+000	1.239342e+002	-3.820055e+001	-7.476012e+001	-3.800333e+001	-7.514692e+001	-1.203899e+001	6.147976e+001
3980000000	-9.593565e+000	1.226733e+002	-3.846281e+001	-7.988474e+001	-3.827556e+001	-8.048681e+001	-1.198978e+001	5.958585e+001
3985000000	-9.633808e+000	1.213796e+002	-3.889328e+001	-8.391468e+001	-3.873282e+001	-8.480849e+001	-1.194561e+001	5.768640e+001
3990000000	-9.683765e+000	1.200986e+002	-3.937763e+001	-8.632478e+001	-3.926978e+001	-8.742829e+001	-1.189931e+001	5.584523e+001
3995000000	-9.737905e+000	1.188587e+002	-3.974962e+001	-8.686492e+001	-3.970207e+001	-8.808905e+001	-1.185134e+001	5.406370e+001
4000000000	-9.792128e+000	1.176551e+002	-3.982084e+001	-8.633691e+001	-3.983881e+001	-8.758071e+001	-1.179872e+001	5.228438e+001
4005000000	-9.841475e+000	1.164754e+002	-3.953628e+001	-8.637083e+001	-3.961980e+001	-8.759477e+001	-1.174513e+001	5.048083e+001
4010000000	-9.884501e+000	1.153060e+002	-3.907181e+001	-8.828962e+001	-3.921038e+001	-8.940814e+001	-1.169620e+001	4.866132e+001
4015000000	-9.918202e+000	1.141273e+002	-3.862527e+001	-9.219852e+001	-3.881185e+001	-9.299560e+001	-1.165278e+001	4.683831e+001
4020000000	-9.948242e+000	1.129138e+002	-3.831523e+001	-9.744184e+001	-3.852295e+001	-9.771157e+001	-1.161689e+001	4.500376e+001
4025000000	-9.976841e+000	1.116593e+002	-3.818689e+001	-1.034069e+002	-3.837294e+001	-1.030624e+002	-1.158640e+001	4.318953e+001
4030000000	-1.000688e+001	1.103643e+002	-3.825270e+001	-1.094555e+002	-3.837340e+001	-1.087448e+002	-1.156024e+001	4.140376e+001
4035000000	-1.004047e+001	1.090414e+002	-3.848562e+001	-1.150409e+002	-3.853359e+001	-1.142729e+002	-1.153454e+001	3.964349e+001
4040000000	-1.007944e+001	1.076914e+002	-3.883061e+001	-1.198817e+002	-3.882471e+001	-1.192465e+002	-1.151228e+001	3.792924e+001
4045000000	-1.012665e+001	1.063522e+002	-3.923083e+001	-1.239740e+002	-3.920822e+001	-1.235942e+002	-1.148968e+001	3.626417e+001
4050000000	-1.017967e+001	1.050679e+002	-3.970087e+001	-1.273157e+002	-3.965556e+001	-1.270064e+002	-1.146183e+001	3.467252e+001
4055000000	-1.022987e+001	1.038753e+002	-4.021156e+001	-1.293424e+002	-4.012086e+001	-1.290861e+002	-1.142369e+001	3.313272e+001
4060000000	-1.026826e+001	1.027060e+002	-4.059874e+001	-1.296476e+002	-4.046121e+001	-1.297283e+002	-1.137202e+001	3.160165e+001
4065000000	-1.029776e+001	1.015058e+002	-4.066674e+001	-1.292524e+002	-4.052448e+001	-1.298186e+002	-1.130939e+001	3.002933e+001
4070000000	-1.032174e+001	1.002369e+002	-4.044271e+001	-1.297473e+002	-4.035502e+001	-1.307092e+002	-1.124449e+001	2.839292e+001
4075000000	-1.034605e+001	9.891974e+001	-4.014301e+001	-1.319472e+002	-4.011400e+001	-1.329984e+002	-1.118401e+001	2.673767e+001
4080000000	-1.037784e+001	9.753251e+001	-3.992411e+001	-1.352852e+002	-3.994866e+001	-1.362981e+002	-1.113226e+001	2.509470e+001
4085000000	-1.041778e+001	9.612876e+001	-3.982713e+001	-1.389455e+002	-3.988393e+001	-1.398621e+002	-1.108841e+001	2.352688e+001
4090000000	-1.046638e+001	9.473352e+001	-3.979852e+001	-1.423964e+002	-3.988030e+001	-1.431221e+002	-1.104376e+001	2.207486e+001
4095000000	-1.051847e+001	9.339587e+001	-3.976053e+001	-1.456127e+002	-3.985314e+001	-1.461725e+002	-1.098783e+001	2.065596e+001
4100000000	-1.056824e+001	9.211867e+001	-3.970099e+001	-1.488620e+002	-3.979960e+001	-1.492722e+002	-1.092745e+001	1.929608e+001
4105000000	-1.060880e+001	9.089248e+001	-3.962002e+001	-1.522945e+002	-3.972794e+001	-1.525075e+002	-1.085791e+001	1.790331e+001
4110000000	-1.064130e+001	8.970359e+001	-3.952753e+001	-1.560067e+002	-3.963893e+001	-1.559632e+002	-1.078091e+001	1.647856e+001
4115000000	-1.066494e+001	8.850076e+001	-3.944817e+001	-1.600693e+002	-3.954448e+001	-1.597918e+002	-1.070380e+001	1.503404e+001
4120000000	-1.068094e+001	8.725736e+001	-3.941373e+001	-1.644565e+002	-3.946923e+001	-1.640659e+002	-1.062261e+001	1.354973e+001
4125000000	-1.069441e+001	8.596146e+001	-3.943326e+001	-1.689581e+002	-3.945080e+001	-1.686224e+002	-1.054137e+001	1.200360e+001
4130000000	-1.070988e+001	8.463997e+001	-3.949939e+001	-1.733975e+002	-3.948879e+001	-1.733932e+002	-1.046486e+001	1.039594e+001
4135000000	-1.072737e+001	8.330232e+001	-3.956691e+001	-1.779662e+002	-3.958282e+001	-1.782886e+002	-1.039760e+001	8.759198e+000
4140000000	-1.074643e+001	8.194973e+001	-3.969904e+001	1.769591e+002	-3.976128e+001	1.766733e+002	-1.034049e+001	7.143779e+000
4145000000	-1.076961e+001	8.060481e+001	-3.996796e+001	1.717433e+002	-4.007209e+001	1.717079e+002	-1.028830e+001	5.593813e+000
4150000000	-1.079440e+001	7.929997e+001	-4.041173e+001	1.670698e+002	-4.053638e+001	1.675240e+002	-1.023571e+001	4.114325e+000
4155000000	-1.082026e+001	7.800372e+001	-4.095259e+001	1.637063e+002	-4.105138e+001	1.645467e+002	-1.017664e+001	2.715890e+000
4160000000	-1.084248e+001	7.669966e+001	-4.148324e+001	1.619446e+002	-4.152870e+001	1.630059e+002	-1.010908e+001	1.371488e+000
4165000000	-1.085865e+001	7.535085e+001	-4.183960e+001	1.614998e+002	-4.181827e+001	1.625650e+002	-1.003472e+001	-1.986739e-002
4170000000	-1.087589e+001	7.391515e+001	-4.194952e+001	1.613861e+002	-4.184369e+001	1.622164e+002	-9.958592e+000	-1.409058e+000
4175000000	-1.090421e+001	7.240197e+001	-4.182663e+001	1.604020e+002	-4.166549e+001	1.607004e+002	-9.885370e+000	-2.801307e+000
4180000000	-1.094513e+001	7.083625e+001	-4.162748e+001	1.579830e+002	-4.145005e+001	1.576554e+002	-9.813099e+000	-4.195191e+000
4185000000	-1.100334e+001	6.931031e+001	-4.151361e+001	1.542433e+002	-4.137299e+001	1.532829e+002	-9.751143e+000	-5.569809e+000
4190000000	-1.106086e+001	6.785329e+001	-4.157725e+001	1.499068e+002	-4.152471e+001	1.485378e+002	-9.694475e+000	-6.941698e+000
4195000000	-1.111756e+001	6.644838e+001	-4.182949e+001	1.460165e+002	-4.190162e+001	1.443905e+002	-9.645576e+000	-8.294885e+000
4200000000	-1.116924e+001	6.508186e+001	-4.219339e+001	1.433043e+002	-4.241040e+001	1.418810e+002	-9.608040e+000	-9.556104e+000
4205000000	-1.120983e+001	6.372041e+001	-4.254678e+001	1.419981e+002	-4.286517e+001	1.412859e+002	-9.571771e+000	-1.071858e+001
4210000000	-1.123957e+001	6.233645e+001	-4.274344e+001	1.416934e+002	-4.311613e+001	1.420857e+002	-9.527917e+000	-1.180795e+001
4215000000	-1.126010e+001	6.089509e+001	-4.274822e+001	1.419279e+002	-4.303935e+001	1.434215e+002	-9.471478e+000	-1.288103e+001
4220000000	-1.127668e+001	5.939003e+001	-4.249085e+001	1.419019e+002	-4.264466e+001	1.440272e+002	-9.402849e+000	-1.399917e+001
4225000000	-1.129430e+001	5.785078e+001	-4.200732e+001	1.405432e+002	-4.201957e+001	1.428359e+002	-9.327960e+000	-1.520344e+001
4230000000	-1.131875e+001	5.628395e+001	-4.147887e+001	1.371917e+002	-4.137318e+001	1.391885e+002	-9.256641e+000	-1.650428e+001
4235000000	-1.134991e+001	5.475471e+001	-4.107242e+001	1.320990e+002	-4.090959e+001	1.336081e+002	-9.193350e+000	-1.789997e+001
4240000000	-1.138226e+001	5.328900e+001	-4.091236e+001	1.260235e+002	-4.071983e+001	1.272176e+002	-9.146982e+000	-1.927326e+001
4245000000	-1.141085e+001	5.186565e+001	-4.100814e+001	1.199197e+002	-4.078322e+001	1.207177e+002	-9.112524e+000	-2.059486e+001
4250000000	-1.143362e+001	5.048062e+001	-4.135522e+001	1.145128e+002	-4.110420e+001	1.148594e+002	-9.079992e+000	-2.181036e+001
4255000000	-1.145100e+001	4.910048e+001	-4.189499e+001	1.106453e+002	-4.164107e+001	1.104385e+002	-9.042028e+000	-2.292437e+001
