!Agilent Technologies,E5071B,MY42403545,A.09.10
!Date: Thu Jul 11 05:24:51 2019
!Data & Calibration Information:
!Freq	S11:SOLT2(ON)	S21:SOLT2(ON)	S12:SOLT2(ON)	S22:SOLT2(ON)
# Hz S dB R 50
3500000000	-1.012590e+001	-1.381635e+002	-3.579270e+001	-1.686721e+002	-3.509214e+001	-1.645512e+002	-1.121351e+001	-1.519763e+002
3505000000	-1.008058e+001	-1.392123e+002	-3.567803e+001	-1.749233e+002	-3.485292e+001	-1.715546e+002	-1.115086e+001	-1.529556e+002
3510000000	-1.003221e+001	-1.402146e+002	-3.585178e+001	1.788157e+002	-3.488906e+001	-1.787422e+002	-1.109986e+001	-1.540337e+002
3515000000	-9.990766e+000	-1.412237e+002	-3.615180e+001	1.735752e+002	-3.506889e+001	1.747195e+002	-1.106526e+001	-1.551166e+002
3520000000	-9.958402e+000	-1.421589e+002	-3.652736e+001	1.691904e+002	-3.535997e+001	1.687580e+002	-1.103486e+001	-1.561768e+002
3525000000	-9.916826e+000	-1.429862e+002	-3.702628e+001	1.661561e+002	-3.579165e+001	1.637551e+002	-1.100771e+001	-1.572768e+002
3530000000	-9.869719e+000	-1.438302e+002	-3.739311e+001	1.652040e+002	-3.618329e+001	1.600796e+002	-1.098963e+001	-1.584009e+002
3535000000	-9.819921e+000	-1.445937e+002	-3.746369e+001	1.646554e+002	-3.648016e+001	1.565263e+002	-1.096984e+001	-1.595382e+002
3540000000	-9.749601e+000	-1.453590e+002	-3.740440e+001	1.644287e+002	-3.690281e+001	1.537019e+002	-1.095745e+001	-1.607595e+002
3545000000	-9.676459e+000	-1.461737e+002	-3.705412e+001	1.633593e+002	-3.720624e+001	1.518625e+002	-1.094949e+001	-1.619853e+002
3550000000	-9.601646e+000	-1.470413e+002	-3.659525e+001	1.607463e+002	-3.739589e+001	1.505424e+002	-1.094089e+001	-1.632564e+002
3555000000	-9.527121e+000	-1.479788e+002	-3.618011e+001	1.573248e+002	-3.746315e+001	1.500338e+002	-1.094704e+001	-1.645699e+002
3560000000	-9.467297e+000	-1.489488e+002	-3.575177e+001	1.523831e+002	-3.724652e+001	1.487196e+002	-1.096082e+001	-1.658468e+002
3565000000	-9.410525e+000	-1.498919e+002	-3.551783e+001	1.463330e+002	-3.702439e+001	1.458911e+002	-1.097156e+001	-1.671117e+002
3570000000	-9.359477e+000	-1.508860e+002	-3.546543e+001	1.405936e+002	-3.686365e+001	1.429252e+002	-1.098564e+001	-1.683776e+002
3575000000	-9.318962e+000	-1.518571e+002	-3.550709e+001	1.349803e+002	-3.671401e+001	1.394791e+002	-1.099959e+001	-1.696237e+002
3580000000	-9.277803e+000	-1.527680e+002	-3.567726e+001	1.295540e+002	-3.666185e+001	1.357263e+002	-1.100196e+001	-1.708578e+002
3585000000	-9.233991e+000	-1.537127e+002	-3.592075e+001	1.254197e+002	-3.664695e+001	1.329487e+002	-1.100134e+001	-1.721225e+002
3590000000	-9.193917e+000	-1.546442e+002	-3.610633e+001	1.219367e+002	-3.652302e+001	1.304729e+002	-1.099723e+001	-1.733809e+002
3595000000	-9.148508e+000	-1.555918e+002	-3.624366e+001	1.189677e+002	-3.630962e+001	1.277877e+002	-1.098845e+001	-1.746955e+002
3600000000	-9.109101e+000	-1.566004e+002	-3.620597e+001	1.166253e+002	-3.593922e+001	1.249178e+002	-1.098221e+001	-1.760463e+002
3605000000	-9.082724e+000	-1.575790e+002	-3.598879e+001	1.132645e+002	-3.548005e+001	1.204753e+002	-1.097907e+001	-1.774219e+002
3610000000	-9.053713e+000	-1.585316e+002	-3.582457e+001	1.085482e+002	-3.514119e+001	1.145083e+002	-1.098106e+001	-1.788212e+002
3615000000	-9.028970e+000	-1.594960e+002	-3.570194e+001	1.032852e+002	-3.491228e+001	1.078966e+002	-1.098882e+001	1.797866e+002
3620000000	-9.006003e+000	-1.604277e+002	-3.574352e+001	9.708136e+001	-3.489683e+001	1.005170e+002	-1.099948e+001	1.784035e+002
3625000000	-8.976531e+000	-1.613357e+002	-3.604593e+001	9.098842e+001	-3.515425e+001	9.341786e+001	-1.100763e+001	1.770088e+002
3630000000	-8.950935e+000	-1.622361e+002	-3.649613e+001	8.625334e+001	-3.555718e+001	8.757300e+001	-1.102359e+001	1.756087e+002
3635000000	-8.919646e+000	-1.630983e+002	-3.697073e+001	8.277788e+001	-3.599819e+001	8.282218e+001	-1.103800e+001	1.742538e+002
3640000000	-8.877723e+000	-1.639732e+002	-3.748237e+001	8.049068e+001	-3.648841e+001	7.902727e+001	-1.105044e+001	1.728743e+002
3645000000	-8.826324e+000	-1.649145e+002	-3.779781e+001	8.009364e+001	-3.685946e+001	7.667975e+001	-1.106142e+001	1.714849e+002
3650000000	-8.776406e+000	-1.659534e+002	-3.783918e+001	7.990041e+001	-3.706695e+001	7.442898e+001	-1.106981e+001	1.700515e+002
3655000000	-8.729174e+000	-1.670885e+002	-3.774325e+001	7.938830e+001	-3.727817e+001	7.206657e+001	-1.108594e+001	1.685847e+002
3660000000	-8.698565e+000	-1.683103e+002	-3.737210e+001	7.851030e+001	-3.733207e+001	7.016126e+001	-1.110962e+001	1.671462e+002
3665000000	-8.687455e+000	-1.695534e+002	-3.685161e+001	7.583341e+001	-3.729458e+001	6.737449e+001	-1.113711e+001	1.657742e+002
3670000000	-8.691066e+000	-1.707919e+002	-3.637026e+001	7.161882e+001	-3.731844e+001	6.415290e+001	-1.116463e+001	1.644507e+002
3675000000	-8.714502e+000	-1.719732e+002	-3.596503e+001	6.583811e+001	-3.737622e+001	6.049971e+001	-1.118730e+001	1.632099e+002
3680000000	-8.744710e+000	-1.730096e+002	-3.577517e+001	5.895484e+001	-3.756545e+001	5.686893e+001	-1.119686e+001	1.620089e+002
3685000000	-8.769536e+000	-1.739716e+002	-3.582990e+001	5.236965e+001	-3.782217e+001	5.473762e+001	-1.118909e+001	1.607931e+002
3690000000	-8.784320e+000	-1.748630e+002	-3.603412e+001	4.612059e+001	-3.796046e+001	5.342019e+001	-1.117395e+001	1.595059e+002
3695000000	-8.790144e+000	-1.757289e+002	-3.630288e+001	4.054406e+001	-3.786906e+001	5.245387e+001	-1.115607e+001	1.581172e+002
3700000000	-8.783874e+000	-1.766070e+002	-3.665246e+001	3.544690e+001	-3.763713e+001	5.089881e+001	-1.114962e+001	1.566332e+002
3705000000	-8.769473e+000	-1.775491e+002	-3.708706e+001	3.091578e+001	-3.731099e+001	4.853742e+001	-1.115400e+001	1.551270e+002
3710000000	-8.753259e+000	-1.785325e+002	-3.756788e+001	2.720215e+001	-3.692994e+001	4.515186e+001	-1.116657e+001	1.535753e+002
3715000000	-8.735803e+000	-1.795564e+002	-3.807060e+001	2.454467e+001	-3.658952e+001	4.062156e+001	-1.119013e+001	1.519964e+002
3720000000	-8.725300e+000	1.793694e+002	-3.849479e+001	2.330552e+001	-3.635255e+001	3.547922e+001	-1.122555e+001	1.504328e+002
3725000000	-8.723004e+000	1.783363e+002	-3.872908e+001	2.239828e+001	-3.622022e+001	2.980185e+001	-1.126641e+001	1.488424e+002
3730000000	-8.721538e+000	1.773197e+002	-3.883931e+001	2.161377e+001	-3.619080e+001	2.409788e+001	-1.131668e+001	1.472255e+002
3735000000	-8.717408e+000	1.763674e+002	-3.885415e+001	2.046866e+001	-3.627627e+001	1.819593e+001	-1.136615e+001	1.455716e+002
3740000000	-8.703319e+000	1.754439e+002	-3.883417e+001	1.899315e+001	-3.648602e+001	1.228727e+001	-1.142513e+001	1.438798e+002
3745000000	-8.679987e+000	1.744453e+002	-3.884287e+001	1.800779e+001	-3.691493e+001	6.973258e+000	-1.148725e+001	1.421487e+002
3750000000	-8.660108e+000	1.733611e+002	-3.868447e+001	1.812087e+001	-3.747230e+001	3.562716e+000	-1.155680e+001	1.404499e+002
3755000000	-8.648866e+000	1.722466e+002	-3.820981e+001	1.742132e+001	-3.789731e+001	1.770835e+000	-1.163020e+001	1.387878e+002
3760000000	-8.648980e+000	1.710845e+002	-3.758027e+001	1.520040e+001	-3.813122e+001	1.031132e+000	-1.170378e+001	1.371761e+002
3765000000	-8.665569e+000	1.699433e+002	-3.690942e+001	1.134184e+001	-3.808339e+001	7.084347e-001	-1.176544e+001	1.356123e+002
3770000000	-8.686163e+000	1.688741e+002	-3.635731e+001	5.300865e+000	-3.781774e+001	-1.353637e+000	-1.182100e+001	1.340765e+002
3775000000	-8.715211e+000	1.678242e+002	-3.601814e+001	-1.355993e+000	-3.757398e+001	-4.578369e+000	-1.186420e+001	1.325972e+002
3780000000	-8.751779e+000	1.668666e+002	-3.576912e+001	-8.304082e+000	-3.733872e+001	-8.440869e+000	-1.188684e+001	1.310969e+002
3785000000	-8.774378e+000	1.659675e+002	-3.578088e+001	-1.626498e+001	-3.728081e+001	-1.335126e+001	-1.189922e+001	1.295598e+002
3790000000	-8.789020e+000	1.650389e+002	-3.604128e+001	-2.333444e+001	-3.734212e+001	-1.743485e+001	-1.189841e+001	1.279711e+002
3795000000	-8.798142e+000	1.640886e+002	-3.636558e+001	-2.948014e+001	-3.732739e+001	-2.123859e+001	-1.190001e+001	1.262823e+002
3800000000	-8.795795e+000	1.630764e+002	-3.682979e+001	-3.516307e+001	-3.738925e+001	-2.540370e+001	-1.191223e+001	1.245789e+002
3805000000	-8.799666e+000	1.619724e+002	-3.734049e+001	-3.963634e+001	-3.747839e+001	-2.925301e+001	-1.193151e+001	1.228962e+002
3810000000	-8.813480e+000	1.608591e+002	-3.784313e+001	-4.324930e+001	-3.757208e+001	-3.274482e+001	-1.195473e+001	1.212281e+002
3815000000	-8.829191e+000	1.597502e+002	-3.837238e+001	-4.610385e+001	-3.766955e+001	-3.589307e+001	-1.197940e+001	1.195892e+002
3820000000	-8.848722e+000	1.586393e+002	-3.890024e+001	-4.772042e+001	-3.770890e+001	-3.874945e+001	-1.199244e+001	1.179630e+002
3825000000	-8.871478e+000	1.575762e+002	-3.920802e+001	-4.762210e+001	-3.757672e+001	-4.150790e+001	-1.199944e+001	1.162355e+002
3830000000	-8.884224e+000	1.565149e+002	-3.925926e+001	-4.753664e+001	-3.741881e+001	-4.546668e+001	-1.200951e+001	1.144866e+002
3835000000	-8.899957e+000	1.553959e+002	-3.909462e+001	-4.771895e+001	-3.733598e+001	-4.979509e+001	-1.201857e+001	1.126911e+002
3840000000	-8.920089e+000	1.542878e+002	-3.867413e+001	-4.964646e+001	-3.721706e+001	-5.468414e+001	-1.203717e+001	1.107981e+002
3845000000	-8.937072e+000	1.531637e+002	-3.839350e+001	-5.342467e+001	-3.724687e+001	-6.038711e+001	-1.206409e+001	1.089414e+002
3850000000	-8.960395e+000	1.520123e+002	-3.827857e+001	-5.699778e+001	-3.745793e+001	-6.569177e+001	-1.208619e+001	1.071098e+002
3855000000	-8.985446e+000	1.508722e+002	-3.811533e+001	-6.084503e+001	-3.768438e+001	-7.091754e+001	-1.211600e+001	1.052969e+002
3860000000	-9.016917e+000	1.496758e+002	-3.802048e+001	-6.479712e+001	-3.808911e+001	-7.592579e+001	-1.213900e+001	1.035756e+002
3865000000	-9.069902e+000	1.484849e+002	-3.791558e+001	-6.873571e+001	-3.862381e+001	-7.976458e+001	-1.214551e+001	1.018248e+002
3870000000	-9.129680e+000	1.474351e+002	-3.783717e+001	-7.378544e+001	-3.919146e+001	-8.287383e+001	-1.214980e+001	1.000575e+002
3875000000	-9.183619e+000	1.464474e+002	-3.795435e+001	-7.842844e+001	-3.985060e+001	-8.355152e+001	-1.214697e+001	9.828849e+001
3880000000	-9.230163e+000	1.455559e+002	-3.808557e+001	-8.210408e+001	-4.017255e+001	-8.183112e+001	-1.214122e+001	9.647936e+001
3885000000	-9.248845e+000	1.447032e+002	-3.817120e+001	-8.561629e+001	-4.006170e+001	-8.042410e+001	-1.213687e+001	9.466343e+001
3890000000	-9.249927e+000	1.437421e+002	-3.813524e+001	-8.874095e+001	-3.961567e+001	-8.006452e+001	-1.213485e+001	9.279513e+001
3895000000	-9.247051e+000	1.426840e+002	-3.794388e+001	-9.263334e+001	-3.897498e+001	-8.193539e+001	-1.214353e+001	9.088681e+001
3900000000	-9.236361e+000	1.415374e+002	-3.783839e+001	-9.871807e+001	-3.845200e+001	-8.658096e+001	-1.216265e+001	8.898524e+001
3905000000	-9.231570e+000	1.402663e+002	-3.801014e+001	-1.056623e+002	-3.815919e+001	-9.233023e+001	-1.219078e+001	8.713075e+001
3910000000	-9.239321e+000	1.389777e+002	-3.851975e+001	-1.122082e+002	-3.810964e+001	-9.828412e+001	-1.221840e+001	8.532317e+001
3915000000	-9.249720e+000	1.376888e+002	-3.941396e+001	-1.172971e+002	-3.832245e+001	-1.038374e+002	-1.224341e+001	8.354532e+001
3920000000	-9.267538e+000	1.363856e+002	-4.047103e+001	-1.188023e+002	-3.864206e+001	-1.079028e+002	-1.226403e+001	8.181214e+001
3925000000	-9.292105e+000	1.351144e+002	-4.127567e+001	-1.159449e+002	-3.891458e+001	-1.104039e+002	-1.227646e+001	8.005215e+001
3930000000	-9.318284e+000	1.338597e+002	-4.146084e+001	-1.111346e+002	-3.907381e+001	-1.123384e+002	-1.228185e+001	7.825788e+001
3935000000	-9.353719e+000	1.326139e+002	-4.094806e+001	-1.070485e+002	-3.907609e+001	-1.136553e+002	-1.228268e+001	7.643601e+001
3940000000	-9.397003e+000	1.314841e+002	-3.995326e+001	-1.063913e+002	-3.881109e+001	-1.151789e+002	-1.228046e+001	7.458899e+001
3945000000	-9.435544e+000	1.304414e+002	-3.904279e+001	-1.097618e+002	-3.847229e+001	-1.185400e+002	-1.226999e+001	7.276478e+001
3950000000	-9.466837e+000	1.294168e+002	-3.835656e+001	-1.148114e+002	-3.819052e+001	-1.227660e+002	-1.224364e+001	7.091092e+001
3955000000	-9.491463e+000	1.283913e+002	-3.786175e+001	-1.211501e+002	-3.795398e+001	-1.280118e+002	-1.221410e+001	6.905753e+001
3960000000	-9.509774e+000	1.272997e+002	-3.767672e+001	-1.279968e+002	-3.794277e+001	-1.339794e+002	-1.217562e+001	6.716685e+001
3965000000	-9.533979e+000	1.261532e+002	-3.769183e+001	-1.339667e+002	-3.812110e+001	-1.392936e+002	-1.213145e+001	6.524952e+001
3970000000	-9.561400e+000	1.250026e+002	-3.774088e+001	-1.392114e+002	-3.835643e+001	-1.439414e+002	-1.208701e+001	6.331246e+001
3975000000	-9.584688e+000	1.237968e+002	-3.783046e+001	-1.440470e+002	-3.867171e+001	-1.478481e+002	-1.204439e+001	6.138827e+001
3980000000	-9.621016e+000	1.225406e+002	-3.791288e+001	-1.484316e+002	-3.899127e+001	-1.505857e+002	-1.199899e+001	5.948880e+001
3985000000	-9.664553e+000	1.212820e+002	-3.794463e+001	-1.524344e+002	-3.916527e+001	-1.519710e+002	-1.195345e+001	5.760397e+001
3990000000	-9.710087e+000	1.200258e+002	-3.794975e+001	-1.565068e+002	-3.910257e+001	-1.532230e+002	-1.189821e+001	5.576267e+001
3995000000	-9.759908e+000	1.187895e+002	-3.787937e+001	-1.605197e+002	-3.880459e+001	-1.551195e+002	-1.184199e+001	5.389919e+001
4000000000	-9.804922e+000	1.175986e+002	-3.771534e+001	-1.655390e+002	-3.835955e+001	-1.588793e+002	-1.179027e+001	5.202849e+001
4005000000	-9.840723e+000	1.163658e+002	-3.767086e+001	-1.718804e+002	-3.804652e+001	-1.645729e+002	-1.174228e+001	5.015896e+001
4010000000	-9.876721e+000	1.151020e+002	-3.781032e+001	-1.786514e+002	-3.795164e+001	-1.710268e+002	-1.170081e+001	4.828162e+001
4015000000	-9.907717e+000	1.138359e+002	-3.816607e+001	1.738922e+002	-3.806438e+001	-1.780745e+002	-1.166525e+001	4.643821e+001
4020000000	-9.942896e+000	1.125261e+002	-3.892397e+001	1.673099e+002	-3.851151e+001	1.755830e+002	-1.163597e+001	4.460881e+001
4025000000	-9.982798e+000	1.112362e+002	-3.994168e+001	1.633461e+002	-3.911390e+001	1.711461e+002	-1.161213e+001	4.282715e+001
4030000000	-1.002132e+001	1.099577e+002	-4.098056e+001	1.625476e+002	-3.967809e+001	1.684849e+002	-1.159129e+001	4.110573e+001
4035000000	-1.006291e+001	1.086648e+002	-4.172352e+001	1.654478e+002	-4.010775e+001	1.673501e+002	-1.156159e+001	3.944933e+001
4040000000	-1.010749e+001	1.073928e+002	-4.180841e+001	1.699765e+002	-4.030606e+001	1.667947e+002	-1.152732e+001	3.783407e+001
4045000000	-1.015436e+001	1.061453e+002	-4.132060e+001	1.729688e+002	-4.032241e+001	1.661376e+002	-1.148499e+001	3.624170e+001
4050000000	-1.020542e+001	1.049355e+002	-4.048543e+001	1.732012e+002	-4.015347e+001	1.653948e+002	-1.143077e+001	3.464689e+001
4055000000	-1.025734e+001	1.037992e+002	-3.955048e+001	1.701637e+002	-3.976255e+001	1.637801e+002	-1.137571e+001	3.302152e+001
4060000000	-1.029985e+001	1.027089e+002	-3.875634e+001	1.641413e+002	-3.923145e+001	1.600202e+002	-1.131807e+001	3.139347e+001
4065000000	-1.033060e+001	1.016197e+002	-3.829629e+001	1.560963e+002	-3.884339e+001	1.538823e+002	-1.125914e+001	2.974696e+001
4070000000	-1.035594e+001	1.004939e+002	-3.818065e+001	1.475099e+002	-3.873783e+001	1.467313e+002	-1.120490e+001	2.811129e+001
4075000000	-1.037135e+001	9.931267e+001	-3.837565e+001	1.387365e+002	-3.892908e+001	1.389810e+002	-1.114741e+001	2.652897e+001
4080000000	-1.038845e+001	9.802237e+001	-3.896375e+001	1.308943e+002	-3.951624e+001	1.319771e+002	-1.108748e+001	2.495634e+001
4085000000	-1.041433e+001	9.668887e+001	-3.982736e+001	1.250836e+002	-4.035899e+001	1.273648e+002	-1.102840e+001	2.342765e+001
4090000000	-1.044468e+001	9.530986e+001	-4.079617e+001	1.219488e+002	-4.124290e+001	1.255124e+002	-1.096470e+001	2.189968e+001
4095000000	-1.048433e+001	9.394360e+001	-4.159570e+001	1.221412e+002	-4.189482e+001	1.264529e+002	-1.089848e+001	2.036707e+001
4100000000	-1.052368e+001	9.261210e+001	-4.194371e+001	1.236067e+002	-4.211566e+001	1.282807e+002	-1.083105e+001	1.881982e+001
4105000000	-1.055965e+001	9.129776e+001	-4.201280e+001	1.245879e+002	-4.207966e+001	1.296278e+002	-1.076729e+001	1.724095e+001
4110000000	-1.059804e+001	9.002920e+001	-4.184129e+001	1.246620e+002	-4.177689e+001	1.302736e+002	-1.071044e+001	1.562356e+001
4115000000	-1.062916e+001	8.878347e+001	-4.158160e+001	1.235357e+002	-4.132749e+001	1.297324e+002	-1.066707e+001	1.403757e+001
4120000000	-1.065301e+001	8.751892e+001	-4.124392e+001	1.216588e+002	-4.074686e+001	1.278466e+002	-1.062529e+001	1.252440e+001
4125000000	-1.067093e+001	8.620384e+001	-4.088764e+001	1.180592e+002	-4.015476e+001	1.237145e+002	-1.058467e+001	1.103193e+001
4130000000	-1.069023e+001	8.481487e+001	-4.069409e+001	1.133969e+002	-3.975948e+001	1.181058e+002	-1.054387e+001	9.608011e+000
4135000000	-1.072058e+001	8.338009e+001	-4.073937e+001	1.083510e+002	-3.962851e+001	1.118228e+002	-1.049419e+001	8.246919e+000
4140000000	-1.076052e+001	8.196173e+001	-4.104925e+001	1.040170e+002	-3.979087e+001	1.059302e+002	-1.043766e+001	6.902339e+000
4145000000	-1.080903e+001	8.059055e+001	-4.149606e+001	1.020048e+002	-4.010280e+001	1.017900e+002	-1.037105e+001	5.599516e+000
4150000000	-1.085997e+001	7.932623e+001	-4.172383e+001	1.029023e+002	-4.033148e+001	9.944924e+001	-1.028933e+001	4.314089e+000
4155000000	-1.090214e+001	7.809269e+001	-4.144008e+001	1.046143e+002	-4.034495e+001	9.774253e+001	-1.019413e+001	3.003848e+000
4160000000	-1.093898e+001	7.684524e+001	-4.061766e+001	1.042216e+002	-4.006836e+001	9.530648e+001	-1.008977e+001	1.605152e+000
4165000000	-1.097125e+001	7.558608e+001	-3.970438e+001	1.002648e+002	-3.975364e+001	9.117525e+001	-9.984213e+000	1.031410e-001
4170000000	-1.099433e+001	7.429259e+001	-3.898720e+001	9.333850e+001	-3.953807e+001	8.549223e+001	-9.891544e+000	-1.509973e+000
4175000000	-1.101695e+001	7.291769e+001	-3.861393e+001	8.497303e+001	-3.952079e+001	7.897763e+001	-9.820956e+000	-3.127033e+000
4180000000	-1.103565e+001	7.147487e+001	-3.856738e+001	7.646412e+001	-3.974377e+001	7.266035e+001	-9.764992e+000	-4.678945e+000
4185000000	-1.106241e+001	6.994846e+001	-3.880073e+001	6.831075e+001	-4.016413e+001	6.703634e+001	-9.722285e+000	-6.137780e+000
4190000000	-1.109153e+001	6.838074e+001	-3.923500e+001	6.084420e+001	-4.067894e+001	6.238933e+001	-9.682518e+000	-7.500114e+000
4195000000	-1.113231e+001	6.678763e+001	-3.991142e+001	5.457494e+001	-4.134652e+001	5.920168e+001	-9.639359e+000	-8.763463e+000
4200000000	-1.118313e+001	6.522118e+001	-4.074985e+001	5.048537e+001	-4.205270e+001	5.857436e+001	-9.592625e+000	-9.981348e+000
4205000000	-1.123660e+001	6.371742e+001	-4.152129e+001	4.900692e+001	-4.248451e+001	6.066016e+001	-9.541725e+000	-1.116777e+001
4210000000	-1.128332e+001	6.228314e+001	-4.194688e+001	4.941041e+001	-4.230798e+001	6.370274e+001	-9.485710e+000	-1.238186e+001
4215000000	-1.131358e+001	6.085420e+001	-4.205722e+001	5.001082e+001	-4.167134e+001	6.495346e+001	-9.432059e+000	-1.362552e+001
4220000000	-1.133235e+001	5.936256e+001	-4.183883e+001	4.934009e+001	-4.078870e+001	6.265896e+001	-9.385060e+000	-1.488768e+001
4225000000	-1.135182e+001	5.782458e+001	-4.152798e+001	4.678428e+001	-3.999900e+001	5.721146e+001	-9.343410e+000	-1.614292e+001
4230000000	-1.138083e+001	5.621562e+001	-4.134018e+001	4.279468e+001	-3.948883e+001	4.968833e+001	-9.306286e+000	-1.738092e+001
4235000000	-1.142165e+001	5.465284e+001	-4.136900e+001	3.817476e+001	-3.936368e+001	4.108143e+001	-9.274321e+000	-1.851676e+001
4240000000	-1.146964e+001	5.317455e+001	-4.155476e+001	3.433650e+001	-3.960319e+001	3.303721e+001	-9.231654e+000	-1.958370e+001
4245000000	-1.151724e+001	5.178245e+001	-4.172420e+001	3.157330e+001	-4.008043e+001	2.664604e+001	-9.175026e+000	-2.062546e+001
4250000000	-1.156113e+001	5.048047e+001	-4.188315e+001	2.923513e+001	-4.074106e+001	2.219915e+001	-9.102072e+000	-2.164711e+001
4255000000	-1.159843e+001	4.926299e+001	-4.191510e+001	2.741229e+001	-4.129134e+001	2.056265e+001	-9.014535e+000	-2.274972e+001
4260000000	-1.162246e+001	4.808793e+001	-4.185605e+001	2.535693e+001	-4.149966e+001	1.975220e+001	-8.926125e+000	-2.393759e+001
