!Agilent Technologies,E5071B,MY42403545,A.09.10
!Date: Thu Jul 11 04:54:06 2019
!Data & Calibration Information:
!Freq	S11:SOLT1(ON)
# Hz S dB R 50
3500000000	-1.236571e+001	-1.527085e+002
3505000000	-1.234389e+001	-1.538586e+002
3510000000	-1.232280e+001	-1.550088e+002
3515000000	-1.230135e+001	-1.561818e+002
3520000000	-1.227399e+001	-1.574220e+002
3525000000	-1.225190e+001	-1.587355e+002
3530000000	-1.223906e+001	-1.600872e+002
3535000000	-1.223202e+001	-1.614503e+002
3540000000	-1.223531e+001	-1.627734e+002
3545000000	-1.223724e+001	-1.639874e+002
3550000000	-1.223268e+001	-1.651549e+002
3555000000	-1.222108e+001	-1.662830e+002
3560000000	-1.219744e+001	-1.674148e+002
3565000000	-1.216955e+001	-1.686157e+002
3570000000	-1.214700e+001	-1.698403e+002
3575000000	-1.212738e+001	-1.710770e+002
3580000000	-1.211459e+001	-1.723506e+002
3585000000	-1.211025e+001	-1.736073e+002
3590000000	-1.210360e+001	-1.748753e+002
3595000000	-1.211058e+001	-1.761919e+002
3600000000	-1.212598e+001	-1.775106e+002
3605000000	-1.214710e+001	-1.788783e+002
3610000000	-1.218147e+001	1.797020e+002
3615000000	-1.222144e+001	1.782730e+002
3620000000	-1.226481e+001	1.767998e+002
3625000000	-1.231925e+001	1.753211e+002
3630000000	-1.237405e+001	1.739148e+002
3635000000	-1.242180e+001	1.724440e+002
3640000000	-1.247147e+001	1.709869e+002
3645000000	-1.251574e+001	1.694963e+002
3650000000	-1.255979e+001	1.679738e+002
3655000000	-1.260268e+001	1.664507e+002
3660000000	-1.264120e+001	1.649552e+002
3665000000	-1.267605e+001	1.634504e+002
3670000000	-1.270351e+001	1.619430e+002
3675000000	-1.272204e+001	1.604396e+002
3680000000	-1.273779e+001	1.588994e+002
3685000000	-1.275249e+001	1.573775e+002
3690000000	-1.276078e+001	1.558325e+002
3695000000	-1.276540e+001	1.542431e+002
3700000000	-1.276862e+001	1.526080e+002
3705000000	-1.277284e+001	1.509111e+002
3710000000	-1.278848e+001	1.491765e+002
3715000000	-1.281026e+001	1.474753e+002
3720000000	-1.283290e+001	1.457972e+002
3725000000	-1.285878e+001	1.441622e+002
3730000000	-1.287979e+001	1.425594e+002
3735000000	-1.289501e+001	1.409389e+002
3740000000	-1.290523e+001	1.393165e+002
3745000000	-1.291124e+001	1.376680e+002
3750000000	-1.291569e+001	1.359857e+002
3755000000	-1.292240e+001	1.342681e+002
3760000000	-1.293732e+001	1.325439e+002
3765000000	-1.296328e+001	1.307994e+002
3770000000	-1.300497e+001	1.290790e+002
3775000000	-1.305470e+001	1.274419e+002
3780000000	-1.310373e+001	1.258777e+002
3785000000	-1.314046e+001	1.243766e+002
3790000000	-1.315548e+001	1.228724e+002
3795000000	-1.315697e+001	1.212053e+002
3800000000	-1.316666e+001	1.193431e+002
3805000000	-1.319196e+001	1.173925e+002
3810000000	-1.324171e+001	1.153741e+002
3815000000	-1.330579e+001	1.134167e+002
3820000000	-1.336899e+001	1.115430e+002
3825000000	-1.342445e+001	1.097056e+002
3830000000	-1.347310e+001	1.079284e+002
3835000000	-1.349849e+001	1.061947e+002
3840000000	-1.349988e+001	1.044479e+002
3845000000	-1.348117e+001	1.026273e+002
3850000000	-1.345319e+001	1.006780e+002
3855000000	-1.343714e+001	9.862920e+001
3860000000	-1.343444e+001	9.658632e+001
3865000000	-1.343790e+001	9.455862e+001
3870000000	-1.345371e+001	9.259146e+001
3875000000	-1.347145e+001	9.077572e+001
3880000000	-1.347928e+001	8.909121e+001
3885000000	-1.347483e+001	8.752631e+001
3890000000	-1.344423e+001	8.599711e+001
3895000000	-1.339711e+001	8.436366e+001
3900000000	-1.335072e+001	8.265255e+001
3905000000	-1.330340e+001	8.090786e+001
3910000000	-1.326628e+001	7.908842e+001
3915000000	-1.323130e+001	7.729218e+001
3920000000	-1.320326e+001	7.549773e+001
3925000000	-1.317468e+001	7.369463e+001
3930000000	-1.314408e+001	7.195591e+001
3935000000	-1.310538e+001	7.023875e+001
3940000000	-1.306066e+001	6.853048e+001
3945000000	-1.300735e+001	6.682021e+001
3950000000	-1.294562e+001	6.501231e+001
3955000000	-1.289180e+001	6.314319e+001
3960000000	-1.284636e+001	6.126690e+001
3965000000	-1.281408e+001	5.942970e+001
3970000000	-1.279281e+001	5.770457e+001
3975000000	-1.277226e+001	5.606776e+001
3980000000	-1.274620e+001	5.446836e+001
3985000000	-1.271243e+001	5.290638e+001
3990000000	-1.266521e+001	5.132145e+001
3995000000	-1.261322e+001	4.967634e+001
4000000000	-1.255965e+001	4.799161e+001
4005000000	-1.250473e+001	4.624856e+001
4010000000	-1.245806e+001	4.442488e+001
4015000000	-1.241353e+001	4.254081e+001
4020000000	-1.237014e+001	4.066952e+001
4025000000	-1.233006e+001	3.882953e+001
4030000000	-1.228671e+001	3.707936e+001
4035000000	-1.223189e+001	3.537875e+001
4040000000	-1.216757e+001	3.373467e+001
4045000000	-1.209467e+001	3.216873e+001
4050000000	-1.201869e+001	3.055634e+001
4055000000	-1.194734e+001	2.900659e+001
4060000000	-1.186865e+001	2.751845e+001
4065000000	-1.179159e+001	2.608717e+001
4070000000	-1.171196e+001	2.462353e+001
4075000000	-1.162889e+001	2.318626e+001
4080000000	-1.155368e+001	2.179370e+001
4085000000	-1.148394e+001	2.046956e+001
4090000000	-1.141706e+001	1.923365e+001
4095000000	-1.134870e+001	1.802412e+001
4100000000	-1.127855e+001	1.684085e+001
4105000000	-1.120585e+001	1.564449e+001
4110000000	-1.113892e+001	1.440344e+001
4115000000	-1.107681e+001	1.315841e+001
4120000000	-1.101262e+001	1.189839e+001
4125000000	-1.094894e+001	1.060429e+001
4130000000	-1.088879e+001	9.325663e+000
4135000000	-1.083257e+001	8.007762e+000
4140000000	-1.078373e+001	6.694473e+000
4145000000	-1.073923e+001	5.428905e+000
4150000000	-1.069431e+001	4.206877e+000
4155000000	-1.064766e+001	3.042712e+000
4160000000	-1.059142e+001	1.885691e+000
4165000000	-1.052912e+001	7.056174e-001
4170000000	-1.046213e+001	-5.155260e-001
4175000000	-1.039288e+001	-1.782246e+000
4180000000	-1.033304e+001	-3.113528e+000
4185000000	-1.028399e+001	-4.468355e+000
4190000000	-1.024337e+001	-5.768416e+000
4195000000	-1.020697e+001	-7.029368e+000
4200000000	-1.016986e+001	-8.256595e+000
4205000000	-1.012748e+001	-9.443186e+000
4210000000	-1.008019e+001	-1.059278e+001
4215000000	-1.002765e+001	-1.173805e+001
4220000000	-9.964079e+000	-1.285419e+001
4225000000	-9.896405e+000	-1.398681e+001
4230000000	-9.828212e+000	-1.512654e+001
4235000000	-9.757355e+000	-1.627622e+001
4240000000	-9.686933e+000	-1.745686e+001
4245000000	-9.621440e+000	-1.859108e+001
4250000000	-9.557087e+000	-1.968274e+001
4255000000	-9.494154e+000	-2.071538e+001
4260000000	-9.427973e+000	-2.167983e+001
4265000000	-9.356267e+000	-2.261518e+001
4270000000	-9.281941e+000	-2.355898e+001
4275000000	-9.207365e+000	-2.451313e+001
4280000000	-9.131781e+000	-2.551740e+001
4285000000	-9.068101e+000	-2.658883e+001
4290000000	-9.018928e+000	-2.768183e+001
4295000000	-8.980622e+000	-2.878426e+001
4300000000	-8.956707e+000	-2.983119e+001
4305000000	-8.937224e+000	-3.080310e+001
4310000000	-8.918639e+000	-3.172811e+001
4315000000	-8.896983e+000	-3.261698e+001
4320000000	-8.862682e+000	-3.350461e+001
4325000000	-8.828876e+000	-3.445313e+001
4330000000	-8.795467e+000	-3.543364e+001
4335000000	-8.761528e+000	-3.645653e+001
4340000000	-8.734288e+000	-3.751250e+001
4345000000	-8.715720e+000	-3.854900e+001
4350000000	-8.697753e+000	-3.952326e+001
4355000000	-8.681847e+000	-4.043693e+001
4360000000	-8.662064e+000	-4.127277e+001
4365000000	-8.630457e+000	-4.211577e+001
4370000000	-8.593681e+000	-4.298318e+001
4375000000	-8.552175e+000	-4.385899e+001
4380000000	-8.504804e+000	-4.480517e+001
4385000000	-8.456396e+000	-4.577769e+001
4390000000	-8.412929e+000	-4.678817e+001
4395000000	-8.376617e+000	-4.781528e+001
4400000000	-8.351206e+000	-4.881994e+001
4405000000	-8.327262e+000	-4.978498e+001
4410000000	-8.300263e+000	-5.071299e+001
4415000000	-8.266956e+000	-5.160499e+001
4420000000	-8.230265e+000	-5.245608e+001
4425000000	-8.187772e+000	-5.331884e+001
4430000000	-8.138902e+000	-5.419915e+001
4435000000	-8.091162e+000	-5.511714e+001
4440000000	-8.043889e+000	-5.605160e+001
4445000000	-7.997963e+000	-5.695407e+001
4450000000	-7.961391e+000	-5.782764e+001
4455000000	-7.932717e+000	-5.866613e+001
4460000000	-7.906304e+000	-5.944586e+001
4465000000	-7.880357e+000	-6.018482e+001
4470000000	-7.852202e+000	-6.087955e+001
4475000000	-7.819477e+000	-6.156946e+001
4480000000	-7.785453e+000	-6.228557e+001
4485000000	-7.752980e+000	-6.299944e+001
4490000000	-7.721870e+000	-6.373924e+001
4495000000	-7.693672e+000	-6.453264e+001
4500000000	-7.673353e+000	-6.535614e+001
4505000000	-7.660811e+000	-6.617562e+001
4510000000	-7.656426e+000	-6.698151e+001
4515000000	-7.655896e+000	-6.775548e+001
4520000000	-7.647770e+000	-6.851362e+001
4525000000	-7.636069e+000	-6.928221e+001
4530000000	-7.622209e+000	-7.006244e+001
4535000000	-7.607497e+000	-7.087572e+001
4540000000	-7.593457e+000	-7.171344e+001
4545000000	-7.580067e+000	-7.255046e+001
4550000000	-7.563638e+000	-7.340673e+001
4555000000	-7.549643e+000	-7.426975e+001
4560000000	-7.533985e+000	-7.514332e+001
4565000000	-7.522491e+000	-7.603845e+001
4570000000	-7.515896e+000	-7.690693e+001
4575000000	-7.509441e+000	-7.772550e+001
4580000000	-7.501332e+000	-7.854437e+001
4585000000	-7.490407e+000	-7.932639e+001
4590000000	-7.472690e+000	-8.010213e+001
4595000000	-7.456786e+000	-8.089931e+001
4600000000	-7.440926e+000	-8.167941e+001
4605000000	-7.421584e+000	-8.245058e+001
4610000000	-7.402480e+000	-8.323073e+001
4615000000	-7.381983e+000	-8.400272e+001
4620000000	-7.358942e+000	-8.480039e+001
4625000000	-7.344800e+000	-8.560453e+001
4630000000	-7.335390e+000	-8.637510e+001
4635000000	-7.326303e+000	-8.711355e+001
4640000000	-7.317016e+000	-8.781935e+001
4645000000	-7.303931e+000	-8.848379e+001
4650000000	-7.285497e+000	-8.915363e+001
4655000000	-7.269044e+000	-8.982743e+001
4660000000	-7.253699e+000	-9.048989e+001
4665000000	-7.239024e+000	-9.116447e+001
4670000000	-7.229383e+000	-9.182700e+001
4675000000	-7.220838e+000	-9.245197e+001
4680000000	-7.213884e+000	-9.305606e+001
4685000000	-7.207210e+000	-9.362762e+001
4690000000	-7.197724e+000	-9.416067e+001
4695000000	-7.182284e+000	-9.470486e+001
4700000000	-7.165483e+000	-9.528153e+001
4705000000	-7.147223e+000	-9.591849e+001
4710000000	-7.138743e+000	-9.662944e+001
4715000000	-7.141275e+000	-9.736507e+001
4720000000	-7.152714e+000	-9.809144e+001
4725000000	-7.170415e+000	-9.880517e+001
4730000000	-7.191034e+000	-9.945769e+001
4735000000	-7.204516e+000	-1.000818e+002
4740000000	-7.209725e+000	-1.006731e+002
4745000000	-7.201867e+000	-1.012647e+002
4750000000	-7.183023e+000	-1.019151e+002
4755000000	-7.161734e+000	-1.026514e+002
4760000000	-7.144515e+000	-1.034355e+002
4765000000	-7.134732e+000	-1.042521e+002
4770000000	-7.134198e+000	-1.050349e+002
4775000000	-7.134577e+000	-1.057733e+002
4780000000	-7.132225e+000	-1.064791e+002
4785000000	-7.128752e+000	-1.071498e+002
4790000000	-7.120927e+000	-1.078006e+002
4795000000	-7.110096e+000	-1.084621e+002
4800000000	-7.100969e+000	-1.091202e+002
4805000000	-7.089491e+000	-1.097808e+002
4810000000	-7.080448e+000	-1.104542e+002
4815000000	-7.074316e+000	-1.111164e+002
4820000000	-7.068755e+000	-1.117895e+002
4825000000	-7.065687e+000	-1.124637e+002
4830000000	-7.064148e+000	-1.131124e+002
4835000000	-7.059834e+000	-1.137330e+002
4840000000	-7.054700e+000	-1.143360e+002
4845000000	-7.044193e+000	-1.149315e+002
4850000000	-7.030937e+000	-1.155310e+002
4855000000	-7.021926e+000	-1.161276e+002
4860000000	-7.018737e+000	-1.167005e+002
4865000000	-7.020712e+000	-1.172674e+002
4870000000	-7.028270e+000	-1.178081e+002
4875000000	-7.039346e+000	-1.183067e+002
4880000000	-7.055391e+000	-1.188337e+002
4885000000	-7.066699e+000	-1.193789e+002
4890000000	-7.081784e+000	-1.198683e+002
4895000000	-7.099155e+000	-1.203644e+002
4900000000	-7.114917e+000	-1.208486e+002
4905000000	-7.125531e+000	-1.213297e+002
4910000000	-7.137093e+000	-1.218098e+002
4915000000	-7.146285e+000	-1.223450e+002
4920000000	-7.158483e+000	-1.228911e+002
4925000000	-7.176261e+000	-1.234761e+002
4930000000	-7.195242e+000	-1.240531e+002
4935000000	-7.213044e+000	-1.246303e+002
4940000000	-7.226790e+000	-1.252362e+002
4945000000	-7.239247e+000	-1.258379e+002
4950000000	-7.249259e+000	-1.264284e+002
4955000000	-7.260312e+000	-1.270068e+002
4960000000	-7.272754e+000	-1.275627e+002
4965000000	-7.284079e+000	-1.281243e+002
4970000000	-7.303215e+000	-1.286662e+002
4975000000	-7.320597e+000	-1.291985e+002
4980000000	-7.332660e+000	-1.297005e+002
4985000000	-7.349196e+000	-1.302313e+002
4990000000	-7.357022e+000	-1.306989e+002
4995000000	-7.364955e+000	-1.311483e+002
5000000000	-7.369154e+000	-1.316120e+002
5005000000	-7.371366e+000	-1.320904e+002
5010000000	-7.375452e+000	-1.326345e+002
5015000000	-7.381245e+000	-1.331815e+002
5020000000	-7.381218e+000	-1.337793e+002
5025000000	-7.374518e+000	-1.343694e+002
5030000000	-7.386942e+000	-1.349698e+002
5035000000	-7.391367e+000	-1.355821e+002
5040000000	-7.401470e+000	-1.361731e+002
5045000000	-7.413396e+000	-1.367269e+002
5050000000	-7.427760e+000	-1.372206e+002
5055000000	-7.442219e+000	-1.376946e+002
5060000000	-7.453800e+000	-1.381459e+002
5065000000	-7.460577e+000	-1.386347e+002
5070000000	-7.467543e+000	-1.391446e+002
5075000000	-7.473419e+000	-1.396837e+002
5080000000	-7.482359e+000	-1.402457e+002
5085000000	-7.493349e+000	-1.407831e+002
5090000000	-7.515688e+000	-1.411584e+002
5095000000	-7.555619e+000	-1.416023e+002
5100000000	-7.597316e+000	-1.420744e+002
5105000000	-7.634569e+000	-1.425380e+002
5110000000	-7.679968e+000	-1.429437e+002
5115000000	-7.727894e+000	-1.433164e+002
5120000000	-7.763621e+000	-1.437465e+002
5125000000	-7.787101e+000	-1.442504e+002
5130000000	-7.810091e+000	-1.447839e+002
5135000000	-7.837376e+000	-1.453226e+002
5140000000	-7.867735e+000	-1.458418e+002
5145000000	-7.898692e+000	-1.463166e+002
5150000000	-7.928906e+000	-1.467909e+002
5155000000	-7.961020e+000	-1.472444e+002
5160000000	-7.990710e+000	-1.476719e+002
5165000000	-8.015253e+000	-1.480995e+002
5170000000	-8.036292e+000	-1.485350e+002
5175000000	-8.051927e+000	-1.489732e+002
5180000000	-8.064067e+000	-1.494416e+002
5185000000	-8.084154e+000	-1.499303e+002
5190000000	-8.106722e+000	-1.504534e+002
5195000000	-8.139144e+000	-1.509833e+002
5200000000	-8.182767e+000	-1.513801e+002
5205000000	-8.225170e+000	-1.516968e+002
5210000000	-8.264143e+000	-1.519515e+002
5215000000	-8.293482e+000	-1.521633e+002
5220000000	-8.311733e+000	-1.524158e+002
5225000000	-8.326160e+000	-1.527041e+002
5230000000	-8.335451e+000	-1.530097e+002
5235000000	-8.343223e+000	-1.533732e+002
5240000000	-8.353170e+000	-1.538075e+002
5245000000	-8.369188e+000	-1.542568e+002
5250000000	-8.392674e+000	-1.547227e+002
5255000000	-8.426557e+000	-1.551441e+002
5260000000	-8.458632e+000	-1.555139e+002
5265000000	-8.485993e+000	-1.559163e+002
5270000000	-8.518935e+000	-1.563446e+002
5275000000	-8.556164e+000	-1.567674e+002
5280000000	-8.596558e+000	-1.571157e+002
5285000000	-8.630456e+000	-1.574019e+002
5290000000	-8.657228e+000	-1.577356e+002
5295000000	-8.688288e+000	-1.580469e+002
5300000000	-8.713497e+000	-1.582870e+002
5305000000	-8.737688e+000	-1.585666e+002
5310000000	-8.763525e+000	-1.587775e+002
5315000000	-8.787629e+000	-1.588957e+002
5320000000	-8.811990e+000	-1.591213e+002
5325000000	-8.835766e+000	-1.594298e+002
5330000000	-8.855382e+000	-1.597565e+002
5335000000	-8.880377e+000	-1.601264e+002
5340000000	-8.982648e+000	-1.603197e+002
5345000000	-9.085612e+000	-1.608515e+002
5350000000	-9.128598e+000	-1.610588e+002
5355000000	-9.161637e+000	-1.614699e+002
5360000000	-9.169251e+000	-1.618675e+002
5365000000	-9.213739e+000	-1.621776e+002
5370000000	-9.232315e+000	-1.625099e+002
5375000000	-9.247675e+000	-1.627600e+002
5380000000	-9.253370e+000	-1.630182e+002
5385000000	-9.255975e+000	-1.632656e+002
5390000000	-9.262552e+000	-1.634887e+002
5395000000	-9.264750e+000	-1.637049e+002
5400000000	-9.268487e+000	-1.639404e+002
5405000000	-9.263670e+000	-1.641708e+002
5410000000	-9.263367e+000	-1.643678e+002
5415000000	-9.260683e+000	-1.645865e+002
5420000000	-9.271677e+000	-1.647400e+002
5425000000	-9.288523e+000	-1.648762e+002
5430000000	-9.302448e+000	-1.649365e+002
5435000000	-9.318859e+000	-1.648947e+002
5440000000	-9.308940e+000	-1.649131e+002
5445000000	-9.278170e+000	-1.649599e+002
5450000000	-9.263822e+000	-1.650894e+002
5455000000	-9.251861e+000	-1.653024e+002
5460000000	-9.241995e+000	-1.655329e+002
5465000000	-9.246856e+000	-1.657480e+002
5470000000	-9.256669e+000	-1.659223e+002
5475000000	-9.267940e+000	-1.660758e+002
5480000000	-9.277126e+000	-1.661912e+002
5485000000	-9.283136e+000	-1.662844e+002
5490000000	-9.289891e+000	-1.663775e+002
5495000000	-9.297208e+000	-1.664698e+002
5500000000	-9.302106e+000	-1.665457e+002
5505000000	-9.304969e+000	-1.666521e+002
5510000000	-9.308717e+000	-1.667917e+002
5515000000	-9.317982e+000	-1.669561e+002
5520000000	-9.334357e+000	-1.671377e+002
5525000000	-9.354177e+000	-1.672977e+002
5530000000	-9.371739e+000	-1.674211e+002
5535000000	-9.383603e+000	-1.675220e+002
5540000000	-9.390421e+000	-1.676549e+002
5545000000	-9.392919e+000	-1.678148e+002
5550000000	-9.393217e+000	-1.680136e+002
5555000000	-9.390971e+000	-1.682366e+002
5560000000	-9.385323e+000	-1.685066e+002
5565000000	-9.378113e+000	-1.688191e+002
5570000000	-9.373963e+000	-1.691301e+002
5575000000	-9.371146e+000	-1.694156e+002
5580000000	-9.371870e+000	-1.696730e+002
5585000000	-9.368061e+000	-1.698987e+002
5590000000	-9.363586e+000	-1.701018e+002
5595000000	-9.354123e+000	-1.702725e+002
5600000000	-9.340979e+000	-1.704574e+002
5605000000	-9.329766e+000	-1.706604e+002
5610000000	-9.323888e+000	-1.708415e+002
5615000000	-9.319956e+000	-1.709622e+002
5620000000	-9.312457e+000	-1.709969e+002
5625000000	-9.294601e+000	-1.710206e+002
5630000000	-9.265662e+000	-1.710690e+002
5635000000	-9.233639e+000	-1.712117e+002
5640000000	-9.204734e+000	-1.714408e+002
5645000000	-9.182955e+000	-1.717156e+002
5650000000	-9.169240e+000	-1.719934e+002
5655000000	-9.155641e+000	-1.722518e+002
5660000000	-9.144507e+000	-1.724958e+002
5665000000	-9.129447e+000	-1.727292e+002
5670000000	-9.115342e+000	-1.729970e+002
5675000000	-9.095384e+000	-1.732431e+002
5680000000	-9.076193e+000	-1.734761e+002
5685000000	-9.058803e+000	-1.736773e+002
5690000000	-9.035316e+000	-1.738794e+002
5695000000	-9.006463e+000	-1.740925e+002
5700000000	-8.975032e+000	-1.743083e+002
5705000000	-8.943821e+000	-1.745499e+002
5710000000	-8.917517e+000	-1.748151e+002
5715000000	-8.898553e+000	-1.751078e+002
5720000000	-8.885557e+000	-1.753842e+002
5725000000	-8.877350e+000	-1.756379e+002
5730000000	-8.868111e+000	-1.758355e+002
5735000000	-8.851345e+000	-1.760334e+002
5740000000	-8.828808e+000	-1.762355e+002
5745000000	-8.800842e+000	-1.764827e+002
5750000000	-8.774754e+000	-1.767708e+002
5755000000	-8.754782e+000	-1.771056e+002
5760000000	-8.736493e+000	-1.774211e+002
5765000000	-8.720995e+000	-1.777226e+002
5770000000	-8.701193e+000	-1.780579e+002
5775000000	-8.675086e+000	-1.784010e+002
5780000000	-8.651320e+000	-1.787250e+002
5785000000	-8.634083e+000	-1.790789e+002
5790000000	-8.618109e+000	-1.794096e+002
5795000000	-8.600041e+000	-1.797236e+002
5800000000	-8.583607e+000	1.799982e+002
5805000000	-8.570271e+000	1.797546e+002
5810000000	-8.550011e+000	1.795529e+002
5815000000	-8.466103e+000	1.776425e+002
5820000000	-8.150734e+000	1.776146e+002
5825000000	-8.180502e+000	1.778978e+002
5830000000	-8.199643e+000	1.770792e+002
5835000000	-8.168157e+000	1.758110e+002
5840000000	-8.142037e+000	1.755571e+002
5845000000	-8.118381e+000	1.753203e+002
5850000000	-8.110478e+000	1.750385e+002
5855000000	-8.088926e+000	1.746929e+002
5860000000	-8.049119e+000	1.744087e+002
5865000000	-8.055127e+000	1.741154e+002
5870000000	-8.051656e+000	1.735640e+002
