!Agilent Technologies,E5071B,MY42403545,A.09.10
!Date: Thu Jul 11 04:51:31 2019
!Data & Calibration Information:
!Freq	S11:SOLT1(ON)
# Hz S dB R 50
3500000000	-1.063797e+001	-1.416753e+002
3505000000	-1.055105e+001	-1.425501e+002
3510000000	-1.046534e+001	-1.434473e+002
3515000000	-1.038243e+001	-1.443893e+002
3520000000	-1.030731e+001	-1.453594e+002
3525000000	-1.023331e+001	-1.463389e+002
3530000000	-1.016149e+001	-1.473558e+002
3535000000	-1.009523e+001	-1.483645e+002
3540000000	-1.002813e+001	-1.493283e+002
3545000000	-9.959640e+000	-1.502742e+002
3550000000	-9.887558e+000	-1.511911e+002
3555000000	-9.808902e+000	-1.521173e+002
3560000000	-9.732283e+000	-1.530811e+002
3565000000	-9.660475e+000	-1.540016e+002
3570000000	-9.588540e+000	-1.548931e+002
3575000000	-9.517399e+000	-1.557700e+002
3580000000	-9.450591e+000	-1.566182e+002
3585000000	-9.383454e+000	-1.574784e+002
3590000000	-9.324071e+000	-1.583698e+002
3595000000	-9.273080e+000	-1.592521e+002
3600000000	-9.228691e+000	-1.601379e+002
3605000000	-9.196143e+000	-1.610378e+002
3610000000	-9.171175e+000	-1.619164e+002
3615000000	-9.147340e+000	-1.628197e+002
3620000000	-9.126519e+000	-1.637439e+002
3625000000	-9.111492e+000	-1.647019e+002
3630000000	-9.102287e+000	-1.656907e+002
3635000000	-9.100881e+000	-1.667127e+002
3640000000	-9.103173e+000	-1.677112e+002
3645000000	-9.104354e+000	-1.686988e+002
3650000000	-9.107127e+000	-1.696816e+002
3655000000	-9.102509e+000	-1.706226e+002
3660000000	-9.087812e+000	-1.715774e+002
3665000000	-9.070382e+000	-1.725443e+002
3670000000	-9.045038e+000	-1.735445e+002
3675000000	-9.020586e+000	-1.745928e+002
3680000000	-9.001091e+000	-1.756547e+002
3685000000	-8.981282e+000	-1.767135e+002
3690000000	-8.965156e+000	-1.777814e+002
3695000000	-8.954862e+000	-1.788367e+002
3700000000	-8.945387e+000	-1.798718e+002
3705000000	-8.937774e+000	1.790917e+002
3710000000	-8.934341e+000	1.780684e+002
3715000000	-8.928662e+000	1.770625e+002
3720000000	-8.922550e+000	1.760497e+002
3725000000	-8.916296e+000	1.750278e+002
3730000000	-8.909225e+000	1.739806e+002
3735000000	-8.905536e+000	1.729331e+002
3740000000	-8.903428e+000	1.719080e+002
3745000000	-8.898253e+000	1.709079e+002
3750000000	-8.890250e+000	1.699300e+002
3755000000	-8.877151e+000	1.689800e+002
3760000000	-8.857745e+000	1.680236e+002
3765000000	-8.834591e+000	1.670635e+002
3770000000	-8.810031e+000	1.660940e+002
3775000000	-8.785157e+000	1.650816e+002
3780000000	-8.769099e+000	1.640458e+002
3785000000	-8.759787e+000	1.629989e+002
3790000000	-8.758822e+000	1.619218e+002
3795000000	-8.769753e+000	1.608417e+002
3800000000	-8.791809e+000	1.597906e+002
3805000000	-8.823461e+000	1.587603e+002
3810000000	-8.865651e+000	1.577912e+002
3815000000	-8.904355e+000	1.568727e+002
3820000000	-8.941182e+000	1.559595e+002
3825000000	-8.971665e+000	1.550511e+002
3830000000	-8.991549e+000	1.540906e+002
3835000000	-9.011253e+000	1.530405e+002
3840000000	-9.031302e+000	1.519366e+002
3845000000	-9.051729e+000	1.507653e+002
3850000000	-9.078545e+000	1.495677e+002
3855000000	-9.105373e+000	1.484057e+002
3860000000	-9.130160e+000	1.472294e+002
3865000000	-9.158662e+000	1.460696e+002
3870000000	-9.181398e+000	1.449565e+002
3875000000	-9.197038e+000	1.438061e+002
3880000000	-9.216109e+000	1.426674e+002
3885000000	-9.231440e+000	1.415643e+002
3890000000	-9.247074e+000	1.404329e+002
3895000000	-9.271155e+000	1.393113e+002
3900000000	-9.293746e+000	1.382502e+002
3905000000	-9.316815e+000	1.371741e+002
3910000000	-9.341177e+000	1.361700e+002
3915000000	-9.354559e+000	1.351522e+002
3920000000	-9.369256e+000	1.340582e+002
3925000000	-9.388975e+000	1.329624e+002
3930000000	-9.404162e+000	1.318209e+002
3935000000	-9.423137e+000	1.306411e+002
3940000000	-9.443593e+000	1.294785e+002
3945000000	-9.461492e+000	1.282953e+002
3950000000	-9.483746e+000	1.270737e+002
3955000000	-9.508508e+000	1.258732e+002
3960000000	-9.533484e+000	1.246490e+002
3965000000	-9.567433e+000	1.234381e+002
3970000000	-9.603041e+000	1.222996e+002
3975000000	-9.635910e+000	1.211705e+002
3980000000	-9.673637e+000	1.201013e+002
3985000000	-9.704980e+000	1.190538e+002
3990000000	-9.735655e+000	1.179730e+002
3995000000	-9.770140e+000	1.168930e+002
4000000000	-9.805150e+000	1.157799e+002
4005000000	-9.847247e+000	1.146147e+002
4010000000	-9.898679e+000	1.134384e+002
4015000000	-9.954013e+000	1.122448e+002
4020000000	-1.001851e+001	1.110286e+002
4025000000	-1.008794e+001	1.098550e+002
4030000000	-1.014925e+001	1.086727e+002
4035000000	-1.020835e+001	1.074414e+002
4040000000	-1.026303e+001	1.061857e+002
4045000000	-1.030847e+001	1.048693e+002
4050000000	-1.035425e+001	1.035099e+002
4055000000	-1.039200e+001	1.021715e+002
4060000000	-1.042304e+001	1.007824e+002
4065000000	-1.045521e+001	9.938751e+001
4070000000	-1.048087e+001	9.801774e+001
4075000000	-1.049996e+001	9.665718e+001
4080000000	-1.051945e+001	9.531276e+001
4085000000	-1.053199e+001	9.399866e+001
4090000000	-1.054009e+001	9.266983e+001
4095000000	-1.055205e+001	9.135184e+001
4100000000	-1.055891e+001	9.004239e+001
4105000000	-1.056989e+001	8.869298e+001
4110000000	-1.058922e+001	8.739092e+001
4115000000	-1.061043e+001	8.607725e+001
4120000000	-1.063967e+001	8.473047e+001
4125000000	-1.067570e+001	8.339488e+001
4130000000	-1.071530e+001	8.203268e+001
4135000000	-1.076552e+001	8.068386e+001
4140000000	-1.081446e+001	7.940494e+001
4145000000	-1.085759e+001	7.814260e+001
4150000000	-1.089640e+001	7.688022e+001
4155000000	-1.092963e+001	7.561186e+001
4160000000	-1.096107e+001	7.429128e+001
4165000000	-1.099394e+001	7.296316e+001
4170000000	-1.102539e+001	7.159897e+001
4175000000	-1.106718e+001	7.018476e+001
4180000000	-1.111869e+001	6.880022e+001
4185000000	-1.117341e+001	6.747319e+001
4190000000	-1.122836e+001	6.618009e+001
4195000000	-1.128662e+001	6.492156e+001
4200000000	-1.134106e+001	6.368702e+001
4205000000	-1.139359e+001	6.243454e+001
4210000000	-1.144241e+001	6.116571e+001
4215000000	-1.148361e+001	5.984340e+001
4220000000	-1.151929e+001	5.844312e+001
4225000000	-1.155574e+001	5.698259e+001
4230000000	-1.159094e+001	5.545075e+001
4235000000	-1.162616e+001	5.385032e+001
4240000000	-1.166637e+001	5.222489e+001
4245000000	-1.170071e+001	5.062433e+001
4250000000	-1.173361e+001	4.898781e+001
4255000000	-1.176152e+001	4.742856e+001
4260000000	-1.177980e+001	4.588995e+001
4265000000	-1.179086e+001	4.434641e+001
4270000000	-1.179157e+001	4.284138e+001
4275000000	-1.178176e+001	4.131791e+001
4280000000	-1.178181e+001	3.976800e+001
4285000000	-1.178595e+001	3.828616e+001
4290000000	-1.179457e+001	3.683771e+001
4295000000	-1.181275e+001	3.544142e+001
4300000000	-1.182977e+001	3.412048e+001
4305000000	-1.184529e+001	3.283707e+001
4310000000	-1.185617e+001	3.159921e+001
4315000000	-1.185676e+001	3.033092e+001
4320000000	-1.185728e+001	2.899462e+001
4325000000	-1.186572e+001	2.759982e+001
4330000000	-1.187863e+001	2.614879e+001
4335000000	-1.190391e+001	2.463081e+001
4340000000	-1.193967e+001	2.314088e+001
4345000000	-1.197858e+001	2.169546e+001
4350000000	-1.201980e+001	2.028656e+001
4355000000	-1.205391e+001	1.897413e+001
4360000000	-1.206436e+001	1.764302e+001
4365000000	-1.207580e+001	1.628578e+001
4370000000	-1.207693e+001	1.492384e+001
4375000000	-1.207148e+001	1.347231e+001
4380000000	-1.207338e+001	1.196423e+001
4385000000	-1.207268e+001	1.041604e+001
4390000000	-1.207772e+001	8.805104e+000
4395000000	-1.209345e+001	7.229912e+000
4400000000	-1.210603e+001	5.672138e+000
4405000000	-1.212181e+001	4.095247e+000
4410000000	-1.213790e+001	2.536017e+000
4415000000	-1.214722e+001	9.424453e-001
4420000000	-1.215714e+001	-6.649416e-001
4425000000	-1.216936e+001	-2.302202e+000
4430000000	-1.217624e+001	-3.942782e+000
4435000000	-1.218884e+001	-5.580293e+000
4440000000	-1.219500e+001	-7.154441e+000
4445000000	-1.219136e+001	-8.735342e+000
4450000000	-1.218624e+001	-1.028077e+001
4455000000	-1.218306e+001	-1.174469e+001
4460000000	-1.217632e+001	-1.312447e+001
4465000000	-1.216625e+001	-1.438228e+001
4470000000	-1.213848e+001	-1.557078e+001
4475000000	-1.210031e+001	-1.675658e+001
4480000000	-1.205792e+001	-1.794200e+001
4485000000	-1.200969e+001	-1.913117e+001
4490000000	-1.196395e+001	-2.034464e+001
4495000000	-1.192595e+001	-2.157852e+001
4500000000	-1.189817e+001	-2.284339e+001
4505000000	-1.188025e+001	-2.410788e+001
4510000000	-1.187491e+001	-2.534472e+001
4515000000	-1.187018e+001	-2.656576e+001
4520000000	-1.186789e+001	-2.783319e+001
4525000000	-1.186962e+001	-2.910928e+001
4530000000	-1.187212e+001	-3.040761e+001
4535000000	-1.187627e+001	-3.174971e+001
4540000000	-1.188572e+001	-3.307798e+001
4545000000	-1.189134e+001	-3.439860e+001
4550000000	-1.189529e+001	-3.571770e+001
4555000000	-1.188917e+001	-3.703054e+001
4560000000	-1.187354e+001	-3.838447e+001
4565000000	-1.185499e+001	-3.976420e+001
4570000000	-1.182904e+001	-4.116061e+001
4575000000	-1.180226e+001	-4.260121e+001
4580000000	-1.178075e+001	-4.406405e+001
4585000000	-1.176425e+001	-4.549685e+001
4590000000	-1.174897e+001	-4.695791e+001
4595000000	-1.173954e+001	-4.836182e+001
4600000000	-1.172733e+001	-4.971020e+001
4605000000	-1.171290e+001	-5.102744e+001
4610000000	-1.169481e+001	-5.231705e+001
4615000000	-1.166519e+001	-5.363595e+001
4620000000	-1.164031e+001	-5.497679e+001
4625000000	-1.161527e+001	-5.629037e+001
4630000000	-1.158492e+001	-5.761629e+001
4635000000	-1.155590e+001	-5.891514e+001
4640000000	-1.152029e+001	-6.018619e+001
4645000000	-1.147735e+001	-6.146856e+001
4650000000	-1.142946e+001	-6.274792e+001
4655000000	-1.137970e+001	-6.401918e+001
4660000000	-1.133470e+001	-6.527568e+001
4665000000	-1.129614e+001	-6.648950e+001
4670000000	-1.126065e+001	-6.766409e+001
4675000000	-1.122951e+001	-6.877496e+001
4680000000	-1.120220e+001	-6.981416e+001
4685000000	-1.117487e+001	-7.079268e+001
4690000000	-1.114361e+001	-7.173006e+001
4695000000	-1.111053e+001	-7.266501e+001
4700000000	-1.107359e+001	-7.362022e+001
4705000000	-1.104384e+001	-7.463703e+001
4710000000	-1.102628e+001	-7.568651e+001
4715000000	-1.101606e+001	-7.674285e+001
4720000000	-1.101302e+001	-7.780627e+001
4725000000	-1.101091e+001	-7.884740e+001
4730000000	-1.100284e+001	-7.991871e+001
4735000000	-1.099163e+001	-8.102175e+001
4740000000	-1.097273e+001	-8.213787e+001
4745000000	-1.094955e+001	-8.333420e+001
4750000000	-1.092672e+001	-8.457267e+001
4755000000	-1.090261e+001	-8.584634e+001
4760000000	-1.088100e+001	-8.714665e+001
4765000000	-1.086430e+001	-8.842354e+001
4770000000	-1.084625e+001	-8.964731e+001
4775000000	-1.082551e+001	-9.085317e+001
4780000000	-1.080314e+001	-9.200831e+001
4785000000	-1.077587e+001	-9.314112e+001
4790000000	-1.074519e+001	-9.426178e+001
4795000000	-1.071414e+001	-9.537131e+001
4800000000	-1.068356e+001	-9.647976e+001
4805000000	-1.065728e+001	-9.758772e+001
4810000000	-1.063273e+001	-9.866921e+001
4815000000	-1.060807e+001	-9.973959e+001
4820000000	-1.058502e+001	-1.007989e+002
4825000000	-1.056401e+001	-1.018261e+002
4830000000	-1.054398e+001	-1.028254e+002
4835000000	-1.052049e+001	-1.037866e+002
4840000000	-1.049109e+001	-1.047147e+002
4845000000	-1.045750e+001	-1.056504e+002
4850000000	-1.042127e+001	-1.065674e+002
4855000000	-1.038210e+001	-1.074771e+002
4860000000	-1.034064e+001	-1.084045e+002
4865000000	-1.030622e+001	-1.093283e+002
4870000000	-1.027763e+001	-1.102283e+002
4875000000	-1.025628e+001	-1.110914e+002
4880000000	-1.024339e+001	-1.118771e+002
4885000000	-1.022987e+001	-1.126056e+002
4890000000	-1.021503e+001	-1.133068e+002
4895000000	-1.019532e+001	-1.140060e+002
4900000000	-1.017448e+001	-1.147609e+002
4905000000	-1.015917e+001	-1.155645e+002
4910000000	-1.014796e+001	-1.164008e+002
4915000000	-1.014389e+001	-1.172827e+002
4920000000	-1.015112e+001	-1.182036e+002
4925000000	-1.016378e+001	-1.191171e+002
4930000000	-1.017646e+001	-1.200373e+002
4935000000	-1.018942e+001	-1.209680e+002
4940000000	-1.020008e+001	-1.219023e+002
4945000000	-1.020567e+001	-1.228517e+002
4950000000	-1.020865e+001	-1.237981e+002
4955000000	-1.020419e+001	-1.247552e+002
4960000000	-1.019868e+001	-1.257436e+002
4965000000	-1.019752e+001	-1.267065e+002
4970000000	-1.019391e+001	-1.276454e+002
4975000000	-1.019063e+001	-1.285719e+002
4980000000	-1.018688e+001	-1.294706e+002
4985000000	-1.018088e+001	-1.303594e+002
4990000000	-1.017511e+001	-1.312219e+002
4995000000	-1.016693e+001	-1.320549e+002
5000000000	-1.015574e+001	-1.328939e+002
5005000000	-1.014730e+001	-1.337168e+002
5010000000	-1.013679e+001	-1.345540e+002
5015000000	-1.012476e+001	-1.354197e+002
5020000000	-1.011692e+001	-1.363066e+002
5025000000	-1.011162e+001	-1.372127e+002
5030000000	-1.010857e+001	-1.381243e+002
5035000000	-1.011310e+001	-1.390265e+002
5040000000	-1.012050e+001	-1.398876e+002
5045000000	-1.012816e+001	-1.407005e+002
5050000000	-1.012805e+001	-1.414231e+002
5055000000	-1.011812e+001	-1.421549e+002
5060000000	-1.010170e+001	-1.428978e+002
5065000000	-1.008263e+001	-1.437050e+002
5070000000	-1.006769e+001	-1.445683e+002
5075000000	-1.006527e+001	-1.454446e+002
5080000000	-1.007362e+001	-1.462994e+002
5085000000	-1.009099e+001	-1.471048e+002
5090000000	-1.011446e+001	-1.478508e+002
5095000000	-1.013992e+001	-1.485242e+002
5100000000	-1.016384e+001	-1.491962e+002
5105000000	-1.018916e+001	-1.498470e+002
5110000000	-1.021238e+001	-1.504760e+002
5115000000	-1.023031e+001	-1.511088e+002
5120000000	-1.024290e+001	-1.517817e+002
5125000000	-1.025181e+001	-1.525280e+002
5130000000	-1.026404e+001	-1.533544e+002
5135000000	-1.028181e+001	-1.542227e+002
5140000000	-1.031004e+001	-1.551188e+002
5145000000	-1.034588e+001	-1.559925e+002
5150000000	-1.038456e+001	-1.568100e+002
5155000000	-1.041648e+001	-1.575621e+002
5160000000	-1.043660e+001	-1.582829e+002
5165000000	-1.044627e+001	-1.590048e+002
5170000000	-1.044789e+001	-1.597350e+002
5175000000	-1.044537e+001	-1.605072e+002
5180000000	-1.044501e+001	-1.612873e+002
5185000000	-1.044732e+001	-1.620931e+002
5190000000	-1.045711e+001	-1.628896e+002
5195000000	-1.047156e+001	-1.636511e+002
5200000000	-1.048974e+001	-1.643880e+002
5205000000	-1.051377e+001	-1.650570e+002
5210000000	-1.053265e+001	-1.656589e+002
5215000000	-1.054499e+001	-1.662510e+002
5220000000	-1.055618e+001	-1.668724e+002
5225000000	-1.056108e+001	-1.675276e+002
5230000000	-1.057268e+001	-1.682502e+002
5235000000	-1.059206e+001	-1.690189e+002
5240000000	-1.061856e+001	-1.698188e+002
5245000000	-1.065705e+001	-1.706147e+002
5250000000	-1.070239e+001	-1.713600e+002
5255000000	-1.074554e+001	-1.720411e+002
5260000000	-1.078548e+001	-1.726909e+002
5265000000	-1.081887e+001	-1.732986e+002
5270000000	-1.084402e+001	-1.738936e+002
5275000000	-1.086672e+001	-1.745305e+002
5280000000	-1.088749e+001	-1.751780e+002
5285000000	-1.090972e+001	-1.758468e+002
5290000000	-1.093552e+001	-1.765249e+002
5295000000	-1.096950e+001	-1.771823e+002
5300000000	-1.100144e+001	-1.778172e+002
5305000000	-1.103678e+001	-1.784320e+002
5310000000	-1.107390e+001	-1.790439e+002
5315000000	-1.111480e+001	-1.796564e+002
5320000000	-1.115739e+001	1.797344e+002
5325000000	-1.119900e+001	1.791331e+002
5330000000	-1.123669e+001	1.784993e+002
5335000000	-1.127218e+001	1.778226e+002
5340000000	-1.131084e+001	1.770941e+002
5345000000	-1.135460e+001	1.763580e+002
5350000000	-1.139795e+001	1.756400e+002
5355000000	-1.143889e+001	1.749439e+002
5360000000	-1.147840e+001	1.742411e+002
5365000000	-1.151478e+001	1.735472e+002
5370000000	-1.154668e+001	1.728811e+002
5375000000	-1.157501e+001	1.722454e+002
5380000000	-1.159984e+001	1.716288e+002
5385000000	-1.162261e+001	1.710360e+002
5390000000	-1.163881e+001	1.704838e+002
5395000000	-1.165537e+001	1.699412e+002
5400000000	-1.167481e+001	1.693733e+002
5405000000	-1.170467e+001	1.688192e+002
5410000000	-1.174458e+001	1.682913e+002
5415000000	-1.179320e+001	1.678433e+002
5420000000	-1.184203e+001	1.674660e+002
5425000000	-1.189093e+001	1.671322e+002
5430000000	-1.193794e+001	1.668232e+002
5435000000	-1.197932e+001	1.665353e+002
5440000000	-1.201862e+001	1.662173e+002
5445000000	-1.205969e+001	1.658900e+002
5450000000	-1.209750e+001	1.654724e+002
5455000000	-1.214386e+001	1.650291e+002
5460000000	-1.219572e+001	1.645833e+002
5465000000	-1.225119e+001	1.641448e+002
5470000000	-1.231000e+001	1.637341e+002
5475000000	-1.236517e+001	1.633611e+002
5480000000	-1.242691e+001	1.629976e+002
5485000000	-1.248605e+001	1.626710e+002
5490000000	-1.254614e+001	1.623745e+002
5495000000	-1.260369e+001	1.620332e+002
5500000000	-1.266405e+001	1.616831e+002
5505000000	-1.272723e+001	1.613174e+002
5510000000	-1.279233e+001	1.609270e+002
5515000000	-1.286436e+001	1.605000e+002
5520000000	-1.294580e+001	1.600579e+002
5525000000	-1.304032e+001	1.596270e+002
5530000000	-1.314323e+001	1.592528e+002
5535000000	-1.324247e+001	1.589893e+002
5540000000	-1.332969e+001	1.586840e+002
5545000000	-1.340948e+001	1.583924e+002
5550000000	-1.347453e+001	1.580113e+002
5555000000	-1.354006e+001	1.575770e+002
5560000000	-1.360381e+001	1.570882e+002
5565000000	-1.367423e+001	1.565976e+002
5570000000	-1.374642e+001	1.561529e+002
5575000000	-1.382479e+001	1.557964e+002
5580000000	-1.389993e+001	1.555442e+002
5585000000	-1.396419e+001	1.553812e+002
5590000000	-1.401135e+001	1.552964e+002
5595000000	-1.404065e+001	1.551818e+002
5600000000	-1.406440e+001	1.550066e+002
5605000000	-1.408850e+001	1.547555e+002
5610000000	-1.412969e+001	1.544514e+002
5615000000	-1.419102e+001	1.542098e+002
5620000000	-1.426398e+001	1.540912e+002
5625000000	-1.433978e+001	1.540313e+002
5630000000	-1.440949e+001	1.541032e+002
5635000000	-1.446742e+001	1.541321e+002
5640000000	-1.451956e+001	1.541277e+002
5645000000	-1.456593e+001	1.540688e+002
5650000000	-1.461550e+001	1.539658e+002
5655000000	-1.466863e+001	1.538256e+002
5660000000	-1.472117e+001	1.536528e+002
5665000000	-1.478245e+001	1.534767e+002
5670000000	-1.485792e+001	1.533013e+002
5675000000	-1.493604e+001	1.532037e+002
5680000000	-1.501558e+001	1.532191e+002
5685000000	-1.508398e+001	1.533754e+002
5690000000	-1.513077e+001	1.535957e+002
5695000000	-1.516058e+001	1.537954e+002
5700000000	-1.518077e+001	1.539343e+002
5705000000	-1.519840e+001	1.540026e+002
5710000000	-1.522540e+001	1.540112e+002
5715000000	-1.526757e+001	1.540118e+002
5720000000	-1.532788e+001	1.540853e+002
5725000000	-1.539946e+001	1.542443e+002
5730000000	-1.546807e+001	1.545778e+002
5735000000	-1.552165e+001	1.549262e+002
5740000000	-1.556412e+001	1.553177e+002
5745000000	-1.558485e+001	1.556533e+002
5750000000	-1.560129e+001	1.558572e+002
5755000000	-1.562539e+001	1.559183e+002
5760000000	-1.566821e+001	1.559143e+002
5765000000	-1.572880e+001	1.559526e+002
5770000000	-1.579162e+001	1.560952e+002
5775000000	-1.585038e+001	1.563172e+002
5780000000	-1.589320e+001	1.566502e+002
5785000000	-1.591877e+001	1.570109e+002
5790000000	-1.592877e+001	1.574154e+002
5795000000	-1.591809e+001	1.578216e+002
5800000000	-1.589481e+001	1.581738e+002
5805000000	-1.586603e+001	1.584633e+002
5810000000	-1.583864e+001	1.587053e+002
5815000000	-1.581591e+001	1.589683e+002
5820000000	-1.579152e+001	1.592475e+002
5825000000	-1.576269e+001	1.595179e+002
5830000000	-1.574497e+001	1.598272e+002
5835000000	-1.571844e+001	1.601339e+002
5840000000	-1.569743e+001	1.604728e+002
5845000000	-1.567093e+001	1.607753e+002
5850000000	-1.565033e+001	1.610783e+002
5855000000	-1.562826e+001	1.613255e+002
5860000000	-1.561157e+001	1.615400e+002
5865000000	-1.559382e+001	1.617436e+002
5870000000	-1.557714e+001	1.619277e+002
5875000000	-1.556040e+001	1.620914e+002
5880000000	-1.554415e+001	1.622392e+002
5885000000	-1.553218e+001	1.624256e+002
