!Agilent Technologies,E5071B,MY42403545,A.09.10
!Date: Thu Jul 11 04:56:36 2019
!Data & Calibration Information:
!Freq	S11:SOLT1(ON)
# Hz S dB R 50
3500000000	-1.659572e+001	-4.898760e+001
3505000000	-1.677818e+001	-5.106649e+001
3510000000	-1.697485e+001	-5.318142e+001
3515000000	-1.717050e+001	-5.536976e+001
3520000000	-1.738334e+001	-5.760967e+001
3525000000	-1.760063e+001	-5.991986e+001
3530000000	-1.784154e+001	-6.222415e+001
3535000000	-1.806940e+001	-6.456117e+001
3540000000	-1.825868e+001	-6.685839e+001
3545000000	-1.840884e+001	-6.921316e+001
3550000000	-1.853524e+001	-7.168051e+001
3555000000	-1.865748e+001	-7.437306e+001
3560000000	-1.877476e+001	-7.721872e+001
3565000000	-1.889108e+001	-8.019973e+001
3570000000	-1.899148e+001	-8.337061e+001
3575000000	-1.904325e+001	-8.660563e+001
3580000000	-1.907525e+001	-8.963251e+001
3585000000	-1.915995e+001	-9.232417e+001
3590000000	-1.921989e+001	-9.496954e+001
3595000000	-1.925407e+001	-9.755771e+001
3600000000	-1.928479e+001	-1.002966e+002
3605000000	-1.929878e+001	-1.030795e+002
3610000000	-1.931232e+001	-1.060006e+002
3615000000	-1.932769e+001	-1.089868e+002
3620000000	-1.937145e+001	-1.119486e+002
3625000000	-1.944178e+001	-1.148890e+002
3630000000	-1.950344e+001	-1.179089e+002
3635000000	-1.955135e+001	-1.209223e+002
3640000000	-1.934148e+001	-1.239498e+002
3645000000	-1.942568e+001	-1.263786e+002
3650000000	-1.950341e+001	-1.293209e+002
3655000000	-1.955254e+001	-1.322373e+002
3660000000	-1.955888e+001	-1.352704e+002
3665000000	-1.954546e+001	-1.383447e+002
3670000000	-1.951125e+001	-1.415273e+002
3675000000	-1.946613e+001	-1.447239e+002
3680000000	-1.941019e+001	-1.479052e+002
3685000000	-1.932474e+001	-1.510631e+002
3690000000	-1.916996e+001	-1.539769e+002
3695000000	-1.904398e+001	-1.566880e+002
3700000000	-1.894399e+001	-1.595720e+002
3705000000	-1.886538e+001	-1.625935e+002
3710000000	-1.880137e+001	-1.656332e+002
3715000000	-1.872453e+001	-1.684892e+002
3720000000	-1.862907e+001	-1.712301e+002
3725000000	-1.849773e+001	-1.738875e+002
3730000000	-1.833843e+001	-1.765083e+002
3735000000	-1.814326e+001	-1.790218e+002
3740000000	-1.792472e+001	1.786528e+002
3745000000	-1.764266e+001	1.767820e+002
3750000000	-1.734626e+001	1.763464e+002
3755000000	-1.726629e+001	1.764701e+002
3760000000	-1.723557e+001	1.772511e+002
3765000000	-1.723785e+001	1.770732e+002
3770000000	-1.712258e+001	1.760929e+002
3775000000	-1.695294e+001	1.748101e+002
3780000000	-1.676135e+001	1.733564e+002
3785000000	-1.652388e+001	1.717587e+002
3790000000	-1.627642e+001	1.699457e+002
3795000000	-1.604968e+001	1.677759e+002
3800000000	-1.589855e+001	1.653907e+002
3805000000	-1.579331e+001	1.629183e+002
3810000000	-1.573370e+001	1.605554e+002
3815000000	-1.570199e+001	1.583946e+002
3820000000	-1.568434e+001	1.564680e+002
3825000000	-1.566285e+001	1.547151e+002
3830000000	-1.562129e+001	1.530747e+002
3835000000	-1.554587e+001	1.514885e+002
3840000000	-1.544215e+001	1.497675e+002
3845000000	-1.533609e+001	1.476885e+002
3850000000	-1.525575e+001	1.453098e+002
3855000000	-1.524285e+001	1.429541e+002
3860000000	-1.530236e+001	1.409215e+002
3865000000	-1.537251e+001	1.394340e+002
3870000000	-1.538933e+001	1.384898e+002
3875000000	-1.531740e+001	1.377686e+002
3880000000	-1.518661e+001	1.368360e+002
3885000000	-1.503557e+001	1.356150e+002
3890000000	-1.490441e+001	1.342569e+002
3895000000	-1.479465e+001	1.327953e+002
3900000000	-1.471861e+001	1.312486e+002
3905000000	-1.466916e+001	1.295292e+002
3910000000	-1.463477e+001	1.276438e+002
3915000000	-1.454639e+001	1.258101e+002
3920000000	-1.445319e+001	1.246715e+002
3925000000	-1.434103e+001	1.233864e+002
3930000000	-1.420928e+001	1.221671e+002
3935000000	-1.408371e+001	1.209819e+002
3940000000	-1.395996e+001	1.197359e+002
3945000000	-1.384290e+001	1.184193e+002
3950000000	-1.373465e+001	1.169512e+002
3955000000	-1.364236e+001	1.153487e+002
3960000000	-1.359511e+001	1.137813e+002
3965000000	-1.357576e+001	1.122622e+002
3970000000	-1.357870e+001	1.109349e+002
3975000000	-1.357154e+001	1.099091e+002
3980000000	-1.354661e+001	1.090809e+002
3985000000	-1.350523e+001	1.083300e+002
3990000000	-1.347695e+001	1.074936e+002
3995000000	-1.346027e+001	1.065439e+002
4000000000	-1.345802e+001	1.055260e+002
4005000000	-1.342214e+001	1.045611e+002
4010000000	-1.338126e+001	1.035644e+002
4015000000	-1.334038e+001	1.023371e+002
4020000000	-1.333044e+001	1.009989e+002
4025000000	-1.333844e+001	9.975522e+001
4030000000	-1.332663e+001	9.859184e+001
4035000000	-1.329674e+001	9.735805e+001
4040000000	-1.326098e+001	9.603093e+001
4045000000	-1.321615e+001	9.463177e+001
4050000000	-1.316913e+001	9.317731e+001
4055000000	-1.311673e+001	9.154259e+001
4060000000	-1.307042e+001	8.987550e+001
4065000000	-1.304748e+001	8.842154e+001
4070000000	-1.300637e+001	8.719033e+001
4075000000	-1.295768e+001	8.607491e+001
4080000000	-1.289729e+001	8.503195e+001
4085000000	-1.284213e+001	8.405141e+001
4090000000	-1.277773e+001	8.308442e+001
4095000000	-1.269799e+001	8.216257e+001
4100000000	-1.262334e+001	8.120498e+001
4105000000	-1.253985e+001	8.020878e+001
4110000000	-1.246825e+001	7.919484e+001
4115000000	-1.240598e+001	7.813131e+001
4120000000	-1.235021e+001	7.701915e+001
4125000000	-1.231030e+001	7.585100e+001
4130000000	-1.229196e+001	7.464157e+001
4135000000	-1.229345e+001	7.339746e+001
4140000000	-1.230103e+001	7.222385e+001
4145000000	-1.231136e+001	7.124141e+001
4150000000	-1.231981e+001	7.036491e+001
4155000000	-1.232279e+001	6.952880e+001
4160000000	-1.231026e+001	6.872319e+001
4165000000	-1.228799e+001	6.788913e+001
4170000000	-1.226511e+001	6.696705e+001
4175000000	-1.224938e+001	6.594208e+001
4180000000	-1.224098e+001	6.488713e+001
4185000000	-1.224473e+001	6.388797e+001
4190000000	-1.225629e+001	6.295893e+001
4195000000	-1.225207e+001	6.215264e+001
4200000000	-1.223495e+001	6.157325e+001
4205000000	-1.223849e+001	6.100501e+001
4210000000	-1.221870e+001	6.026345e+001
4215000000	-1.219997e+001	5.938563e+001
4220000000	-1.215429e+001	5.829537e+001
4225000000	-1.212473e+001	5.737439e+001
4230000000	-1.213179e+001	5.598147e+001
4235000000	-1.213333e+001	5.492236e+001
4240000000	-1.213217e+001	5.384699e+001
4245000000	-1.211852e+001	5.284107e+001
4250000000	-1.209628e+001	5.195123e+001
4255000000	-1.206372e+001	5.111324e+001
4260000000	-1.203368e+001	5.013524e+001
4265000000	-1.198635e+001	4.903462e+001
4270000000	-1.190188e+001	4.804526e+001
4275000000	-1.188777e+001	4.691639e+001
4280000000	-1.186115e+001	4.564035e+001
4285000000	-1.185454e+001	4.446655e+001
4290000000	-1.186554e+001	4.336690e+001
4295000000	-1.188303e+001	4.235425e+001
4300000000	-1.189887e+001	4.145689e+001
4305000000	-1.191109e+001	4.064616e+001
4310000000	-1.191057e+001	3.986371e+001
4315000000	-1.190032e+001	3.904517e+001
4320000000	-1.188225e+001	3.821656e+001
4325000000	-1.188264e+001	3.729491e+001
4330000000	-1.188706e+001	3.630190e+001
4335000000	-1.190396e+001	3.527625e+001
4340000000	-1.193668e+001	3.424534e+001
4345000000	-1.198400e+001	3.326977e+001
4350000000	-1.203570e+001	3.240229e+001
4355000000	-1.208035e+001	3.162186e+001
4360000000	-1.211019e+001	3.088774e+001
4365000000	-1.213005e+001	3.010046e+001
4370000000	-1.214019e+001	2.922767e+001
4375000000	-1.215797e+001	2.836239e+001
4380000000	-1.217798e+001	2.732560e+001
4385000000	-1.219778e+001	2.628748e+001
4390000000	-1.223714e+001	2.521383e+001
4395000000	-1.227987e+001	2.413034e+001
4400000000	-1.232566e+001	2.309897e+001
4405000000	-1.236647e+001	2.214783e+001
4410000000	-1.240008e+001	2.121271e+001
4415000000	-1.240727e+001	2.012292e+001
4420000000	-1.238759e+001	1.948005e+001
4425000000	-1.241664e+001	1.841867e+001
4430000000	-1.242798e+001	1.719845e+001
4435000000	-1.246547e+001	1.577956e+001
4440000000	-1.248055e+001	1.470499e+001
4445000000	-1.256040e+001	1.356256e+001
4450000000	-1.259821e+001	1.248835e+001
4455000000	-1.264701e+001	1.138839e+001
4460000000	-1.267755e+001	1.040601e+001
4465000000	-1.268158e+001	9.609809e+000
4470000000	-1.269146e+001	8.672356e+000
4475000000	-1.268293e+001	7.749639e+000
4480000000	-1.267090e+001	6.819019e+000
4485000000	-1.266191e+001	5.803713e+000
4490000000	-1.266319e+001	4.702252e+000
4495000000	-1.267775e+001	3.553478e+000
4500000000	-1.271224e+001	2.427270e+000
4505000000	-1.276595e+001	1.376605e+000
4510000000	-1.283067e+001	4.579947e-001
4515000000	-1.289344e+001	-3.402396e-001
4520000000	-1.294945e+001	-1.102776e+000
4525000000	-1.299919e+001	-1.896359e+000
4530000000	-1.304414e+001	-2.762599e+000
4535000000	-1.308731e+001	-3.702637e+000
4540000000	-1.313827e+001	-4.695174e+000
4545000000	-1.319766e+001	-5.714731e+000
4550000000	-1.326614e+001	-6.776398e+000
4555000000	-1.333551e+001	-7.858066e+000
4560000000	-1.341018e+001	-8.991021e+000
4565000000	-1.349772e+001	-1.013829e+001
4570000000	-1.358735e+001	-1.125359e+001
4575000000	-1.367011e+001	-1.230583e+001
4580000000	-1.374434e+001	-1.332544e+001
4585000000	-1.380336e+001	-1.439309e+001
4590000000	-1.385493e+001	-1.552151e+001
4595000000	-1.390925e+001	-1.672608e+001
4600000000	-1.397004e+001	-1.795561e+001
4605000000	-1.403416e+001	-1.916138e+001
4610000000	-1.409727e+001	-2.036963e+001
4615000000	-1.416017e+001	-2.156604e+001
4620000000	-1.421685e+001	-2.278485e+001
4625000000	-1.427928e+001	-2.402886e+001
4630000000	-1.434530e+001	-2.524747e+001
4635000000	-1.440873e+001	-2.642213e+001
4640000000	-1.446313e+001	-2.759256e+001
4645000000	-1.450559e+001	-2.879387e+001
4650000000	-1.454118e+001	-3.007669e+001
4655000000	-1.458013e+001	-3.140886e+001
4660000000	-1.462830e+001	-3.274364e+001
4665000000	-1.468566e+001	-3.403414e+001
4670000000	-1.475145e+001	-3.521431e+001
4675000000	-1.481640e+001	-3.622598e+001
4680000000	-1.487308e+001	-3.714089e+001
4685000000	-1.491504e+001	-3.798603e+001
4690000000	-1.493992e+001	-3.881290e+001
4695000000	-1.491141e+001	-3.943484e+001
4700000000	-1.500285e+001	-4.035865e+001
4705000000	-1.501931e+001	-4.167676e+001
4710000000	-1.504021e+001	-4.290552e+001
4715000000	-1.509470e+001	-4.466150e+001
4720000000	-1.523859e+001	-4.592008e+001
4725000000	-1.540210e+001	-4.703313e+001
4730000000	-1.553421e+001	-4.791351e+001
4735000000	-1.564163e+001	-4.871571e+001
4740000000	-1.571630e+001	-4.955852e+001
4745000000	-1.576050e+001	-5.058260e+001
4750000000	-1.579135e+001	-5.187940e+001
4755000000	-1.583360e+001	-5.347847e+001
4760000000	-1.589887e+001	-5.523923e+001
4765000000	-1.600296e+001	-5.694320e+001
4770000000	-1.612263e+001	-5.852485e+001
4775000000	-1.623542e+001	-5.993922e+001
4780000000	-1.631839e+001	-6.127356e+001
4785000000	-1.636879e+001	-6.267354e+001
4790000000	-1.640652e+001	-6.417156e+001
4795000000	-1.641045e+001	-6.580916e+001
4800000000	-1.640410e+001	-6.687889e+001
4805000000	-1.647912e+001	-6.852735e+001
4810000000	-1.654120e+001	-7.046457e+001
4815000000	-1.658856e+001	-7.259013e+001
4820000000	-1.667119e+001	-7.467402e+001
4825000000	-1.673359e+001	-7.645424e+001
4830000000	-1.680080e+001	-7.807748e+001
4835000000	-1.685439e+001	-7.960976e+001
4840000000	-1.689753e+001	-8.080504e+001
4845000000	-1.691833e+001	-8.210364e+001
4850000000	-1.689930e+001	-8.330109e+001
4855000000	-1.690197e+001	-8.455005e+001
4860000000	-1.689113e+001	-8.597753e+001
4865000000	-1.689568e+001	-8.760334e+001
4870000000	-1.689621e+001	-8.913330e+001
4875000000	-1.691972e+001	-9.035924e+001
4880000000	-1.696688e+001	-9.131473e+001
4885000000	-1.704949e+001	-9.234472e+001
4890000000	-1.714161e+001	-9.367842e+001
4895000000	-1.719895e+001	-9.514709e+001
4900000000	-1.718259e+001	-9.685544e+001
4905000000	-1.718064e+001	-9.793816e+001
4910000000	-1.721193e+001	-1.001319e+002
4915000000	-1.727459e+001	-1.018538e+002
4920000000	-1.736766e+001	-1.035964e+002
4925000000	-1.748529e+001	-1.052642e+002
4930000000	-1.761208e+001	-1.068217e+002
4935000000	-1.770860e+001	-1.083196e+002
4940000000	-1.781710e+001	-1.098578e+002
4945000000	-1.784268e+001	-1.108663e+002
4950000000	-1.792269e+001	-1.130699e+002
4955000000	-1.795431e+001	-1.150596e+002
4960000000	-1.798919e+001	-1.169387e+002
4965000000	-1.803110e+001	-1.189748e+002
4970000000	-1.808785e+001	-1.211633e+002
4975000000	-1.821593e+001	-1.244554e+002
4980000000	-1.806227e+001	-1.259932e+002
4985000000	-1.821428e+001	-1.287733e+002
4990000000	-1.834052e+001	-1.314405e+002
4995000000	-1.834645e+001	-1.331537e+002
5000000000	-1.832899e+001	-1.348547e+002
5005000000	-1.831225e+001	-1.365025e+002
5010000000	-1.829169e+001	-1.379763e+002
5015000000	-1.827403e+001	-1.391242e+002
5020000000	-1.824873e+001	-1.405923e+002
5025000000	-1.822218e+001	-1.423953e+002
5030000000	-1.812935e+001	-1.440091e+002
5035000000	-1.805824e+001	-1.459057e+002
5040000000	-1.784023e+001	-1.477719e+002
5045000000	-1.778257e+001	-1.499207e+002
5050000000	-1.771314e+001	-1.518868e+002
5055000000	-1.770930e+001	-1.535400e+002
5060000000	-1.767841e+001	-1.550316e+002
5065000000	-1.764222e+001	-1.564225e+002
5070000000	-1.758701e+001	-1.578430e+002
5075000000	-1.752279e+001	-1.593054e+002
5080000000	-1.747200e+001	-1.609070e+002
5085000000	-1.743026e+001	-1.625330e+002
5090000000	-1.738664e+001	-1.643045e+002
5095000000	-1.736254e+001	-1.660813e+002
5100000000	-1.735932e+001	-1.678415e+002
5105000000	-1.737098e+001	-1.695458e+002
5110000000	-1.739705e+001	-1.711264e+002
5115000000	-1.741482e+001	-1.726290e+002
5120000000	-1.740093e+001	-1.741424e+002
5125000000	-1.736705e+001	-1.756867e+002
5130000000	-1.731684e+001	-1.772549e+002
5135000000	-1.726009e+001	-1.789893e+002
5140000000	-1.719606e+001	1.791125e+002
5145000000	-1.714563e+001	1.771229e+002
5150000000	-1.713276e+001	1.753893e+002
5155000000	-1.714194e+001	1.735755e+002
5160000000	-1.715779e+001	1.721486e+002
5165000000	-1.721546e+001	1.705940e+002
5170000000	-1.717022e+001	1.690383e+002
5175000000	-1.707274e+001	1.675969e+002
5180000000	-1.694543e+001	1.667270e+002
5185000000	-1.677387e+001	1.657610e+002
5190000000	-1.672976e+001	1.634307e+002
5195000000	-1.657883e+001	1.619140e+002
5200000000	-1.648157e+001	1.604041e+002
5205000000	-1.639887e+001	1.584818e+002
5210000000	-1.635013e+001	1.569000e+002
5215000000	-1.635575e+001	1.557286e+002
5220000000	-1.643235e+001	1.542983e+002
5225000000	-1.638890e+001	1.525713e+002
5230000000	-1.632926e+001	1.514425e+002
5235000000	-1.622131e+001	1.503479e+002
5240000000	-1.615388e+001	1.492229e+002
5245000000	-1.607063e+001	1.478506e+002
5250000000	-1.602138e+001	1.464366e+002
5255000000	-1.603842e+001	1.450224e+002
5260000000	-1.598404e+001	1.433566e+002
5265000000	-1.588754e+001	1.421881e+002
5270000000	-1.583991e+001	1.414259e+002
5275000000	-1.576403e+001	1.400741e+002
5280000000	-1.566172e+001	1.389653e+002
5285000000	-1.559929e+001	1.377474e+002
5290000000	-1.554163e+001	1.364978e+002
5295000000	-1.548983e+001	1.351873e+002
5300000000	-1.544645e+001	1.338877e+002
5305000000	-1.540870e+001	1.325920e+002
5310000000	-1.537777e+001	1.313115e+002
5315000000	-1.535552e+001	1.300651e+002
5320000000	-1.533192e+001	1.288705e+002
5325000000	-1.529742e+001	1.277445e+002
5330000000	-1.525174e+001	1.266471e+002
5335000000	-1.518914e+001	1.255391e+002
5340000000	-1.511361e+001	1.243571e+002
5345000000	-1.503917e+001	1.231322e+002
5350000000	-1.496405e+001	1.219241e+002
5355000000	-1.488007e+001	1.206891e+002
5360000000	-1.479831e+001	1.194591e+002
5365000000	-1.475067e+001	1.180636e+002
5370000000	-1.462993e+001	1.161673e+002
5375000000	-1.456265e+001	1.152460e+002
5380000000	-1.452625e+001	1.141042e+002
5385000000	-1.452912e+001	1.132372e+002
5390000000	-1.449984e+001	1.121056e+002
5395000000	-1.442436e+001	1.113145e+002
5400000000	-1.444134e+001	1.106443e+002
5405000000	-1.453042e+001	1.089296e+002
5410000000	-1.447866e+001	1.078915e+002
5415000000	-1.442557e+001	1.068868e+002
5420000000	-1.438264e+001	1.059053e+002
5425000000	-1.434567e+001	1.048895e+002
5430000000	-1.431733e+001	1.038251e+002
5435000000	-1.430656e+001	1.027665e+002
5440000000	-1.430704e+001	1.017077e+002
5445000000	-1.431475e+001	1.007357e+002
5450000000	-1.430370e+001	9.982578e+001
5455000000	-1.429465e+001	9.890724e+001
5460000000	-1.429355e+001	9.788741e+001
5465000000	-1.426352e+001	9.652930e+001
5470000000	-1.425237e+001	9.551902e+001
5475000000	-1.425774e+001	9.446131e+001
5480000000	-1.427474e+001	9.333891e+001
5485000000	-1.428845e+001	9.226342e+001
5490000000	-1.429749e+001	9.117328e+001
5495000000	-1.429988e+001	9.003062e+001
5500000000	-1.430346e+001	8.887436e+001
5505000000	-1.430186e+001	8.772524e+001
5510000000	-1.429567e+001	8.660977e+001
5515000000	-1.428629e+001	8.548066e+001
5520000000	-1.427834e+001	8.433685e+001
5525000000	-1.427051e+001	8.261023e+001
5530000000	-1.421313e+001	8.130120e+001
5535000000	-1.415589e+001	8.017779e+001
5540000000	-1.420655e+001	7.878958e+001
5545000000	-1.417720e+001	7.760951e+001
5550000000	-1.415393e+001	7.669710e+001
5555000000	-1.412224e+001	7.571619e+001
5560000000	-1.408098e+001	7.476294e+001
5565000000	-1.403848e+001	7.387598e+001
5570000000	-1.399637e+001	7.292268e+001
5575000000	-1.395323e+001	7.195750e+001
5580000000	-1.391584e+001	7.092385e+001
5585000000	-1.388585e+001	6.988145e+001
5590000000	-1.386873e+001	6.885583e+001
5595000000	-1.386168e+001	6.786843e+001
5600000000	-1.385972e+001	6.697943e+001
5605000000	-1.385378e+001	6.613269e+001
5610000000	-1.384285e+001	6.532116e+001
5615000000	-1.382113e+001	6.443786e+001
5620000000	-1.379658e+001	6.349011e+001
5625000000	-1.378647e+001	6.247752e+001
5630000000	-1.378867e+001	6.143732e+001
5635000000	-1.378646e+001	6.039397e+001
5640000000	-1.378181e+001	5.944665e+001
5645000000	-1.377779e+001	5.854136e+001
5650000000	-1.376121e+001	5.762797e+001
5655000000	-1.374711e+001	5.682421e+001
5660000000	-1.373769e+001	5.591219e+001
5665000000	-1.373492e+001	5.500685e+001
5670000000	-1.372612e+001	5.407265e+001
5675000000	-1.371260e+001	5.311457e+001
5680000000	-1.369562e+001	5.209762e+001
5685000000	-1.368564e+001	5.103537e+001
5690000000	-1.369102e+001	4.995167e+001
5695000000	-1.371352e+001	4.885343e+001
5700000000	-1.374297e+001	4.779878e+001
5705000000	-1.377595e+001	4.674056e+001
5710000000	-1.381305e+001	4.572452e+001
5715000000	-1.384198e+001	4.477886e+001
5720000000	-1.385769e+001	4.386635e+001
5725000000	-1.386391e+001	4.289926e+001
5730000000	-1.386270e+001	4.187972e+001
5735000000	-1.387009e+001	4.079463e+001
5740000000	-1.388890e+001	3.969542e+001
5745000000	-1.391064e+001	3.862948e+001
5750000000	-1.393058e+001	3.764424e+001
5755000000	-1.393958e+001	3.671038e+001
5760000000	-1.393566e+001	3.577053e+001
5765000000	-1.392221e+001	3.475969e+001
5770000000	-1.391855e+001	3.372079e+001
5775000000	-1.392340e+001	3.269694e+001
5780000000	-1.394333e+001	3.166393e+001
5785000000	-1.396969e+001	3.070125e+001
5790000000	-1.399284e+001	2.972876e+001
5795000000	-1.401681e+001	2.876264e+001
5800000000	-1.405230e+001	2.775602e+001
5805000000	-1.407614e+001	2.681172e+001
5810000000	-1.409473e+001	2.589987e+001
5815000000	-1.408578e+001	2.503815e+001
5820000000	-1.408627e+001	2.414771e+001
5825000000	-1.409050e+001	2.307758e+001
5830000000	-1.410939e+001	2.197971e+001
5835000000	-1.414176e+001	2.084965e+001
5840000000	-1.417683e+001	1.970865e+001
5845000000	-1.420805e+001	1.861310e+001
5850000000	-1.423614e+001	1.754231e+001
5855000000	-1.425961e+001	1.645973e+001
5860000000	-1.428164e+001	1.538239e+001
5865000000	-1.430861e+001	1.431297e+001
5870000000	-1.433872e+001	1.326267e+001
5875000000	-1.437529e+001	1.225035e+001
5880000000	-1.441132e+001	1.114904e+001
5885000000	-1.445243e+001	1.019778e+001
5890000000	-1.448409e+001	9.286898e+000
