!Agilent Technologies,E5071B,MY42403545,A.09.10
!Date: Thu Jul 11 05:47:04 2019
!Data & Calibration Information:
!Freq	S11:SOLT2(ON)	S21:SOLT2(ON)	S12:SOLT2(ON)	S22:SOLT2(ON)
# Hz S dB R 50
3500000000	-1.048803e+001	-1.439667e+002	-4.146097e+001	1.162941e+002	-4.063963e+001	1.789421e+002	-1.117822e+001	-1.518973e+002
3505000000	-1.038640e+001	-1.447037e+002	-4.140450e+001	1.104930e+002	-4.066389e+001	1.722038e+002	-1.113486e+001	-1.531184e+002
3510000000	-1.029206e+001	-1.454388e+002	-4.141465e+001	1.040409e+002	-4.070196e+001	1.664537e+002	-1.110246e+001	-1.543367e+002
3515000000	-1.019950e+001	-1.461520e+002	-4.144030e+001	9.845968e+001	-4.058217e+001	1.605863e+002	-1.107231e+001	-1.555660e+002
3520000000	-1.010764e+001	-1.468940e+002	-4.130008e+001	9.269945e+001	-4.046856e+001	1.540358e+002	-1.104820e+001	-1.568054e+002
3525000000	-1.001784e+001	-1.476846e+002	-4.119057e+001	8.573652e+001	-4.035766e+001	1.475078e+002	-1.103372e+001	-1.580334e+002
3530000000	-9.932183e+000	-1.485578e+002	-4.112791e+001	7.912476e+001	-4.019869e+001	1.402800e+002	-1.102833e+001	-1.592404e+002
3535000000	-9.854201e+000	-1.494950e+002	-4.101036e+001	7.175540e+001	-4.017796e+001	1.328507e+002	-1.102477e+001	-1.604033e+002
3540000000	-9.786704e+000	-1.504615e+002	-4.107126e+001	6.397676e+001	-4.016062e+001	1.261355e+002	-1.102258e+001	-1.615165e+002
3545000000	-9.731786e+000	-1.514419e+002	-4.122091e+001	5.723082e+001	-4.004775e+001	1.192735e+002	-1.101477e+001	-1.626104e+002
3550000000	-9.685819e+000	-1.523974e+002	-4.129696e+001	5.046724e+001	-4.005357e+001	1.121797e+002	-1.100122e+001	-1.637233e+002
3555000000	-9.643346e+000	-1.533289e+002	-4.155429e+001	4.445919e+001	-3.996334e+001	1.059308e+002	-1.099276e+001	-1.648709e+002
3560000000	-9.604892e+000	-1.542162e+002	-4.164883e+001	4.004926e+001	-3.982412e+001	9.886636e+001	-1.098854e+001	-1.660266e+002
3565000000	-9.560056e+000	-1.550527e+002	-4.155397e+001	3.514573e+001	-3.980053e+001	9.182051e+001	-1.098632e+001	-1.672183e+002
3570000000	-9.510074e+000	-1.559024e+002	-4.147937e+001	3.027757e+001	-3.969258e+001	8.543956e+001	-1.099346e+001	-1.684220e+002
3575000000	-9.452469e+000	-1.567669e+002	-4.123476e+001	2.531009e+001	-3.954845e+001	7.827854e+001	-1.100427e+001	-1.695960e+002
3580000000	-9.393983e+000	-1.576639e+002	-4.093361e+001	1.922133e+001	-3.944232e+001	7.119797e+001	-1.101335e+001	-1.707848e+002
3585000000	-9.335018e+000	-1.585750e+002	-4.071299e+001	1.280991e+001	-3.923945e+001	6.386256e+001	-1.102347e+001	-1.719498e+002
3590000000	-9.275726e+000	-1.595162e+002	-4.040776e+001	6.189480e+000	-3.909402e+001	5.545791e+001	-1.102942e+001	-1.730936e+002
3595000000	-9.217921e+000	-1.604280e+002	-4.014026e+001	-1.568710e+000	-3.905581e+001	4.705291e+001	-1.103348e+001	-1.742685e+002
3600000000	-9.158700e+000	-1.613555e+002	-4.000753e+001	-9.354453e+000	-3.902032e+001	3.872679e+001	-1.103037e+001	-1.754358e+002
3605000000	-9.103864e+000	-1.623015e+002	-3.989542e+001	-1.684533e+001	-3.905407e+001	3.030960e+001	-1.102242e+001	-1.766491e+002
3610000000	-9.046640e+000	-1.632742e+002	-3.981454e+001	-2.476118e+001	-3.914751e+001	2.224579e+001	-1.100919e+001	-1.779078e+002
3615000000	-8.996277e+000	-1.642755e+002	-3.986137e+001	-3.216921e+001	-3.920941e+001	1.466758e+001	-1.099892e+001	-1.792705e+002
3620000000	-8.946727e+000	-1.652825e+002	-3.984728e+001	-3.902390e+001	-3.929836e+001	7.116932e+000	-1.098870e+001	1.793221e+002
3625000000	-8.898023e+000	-1.663207e+002	-3.985604e+001	-4.581289e+001	-3.937211e+001	4.276588e-001	-1.098907e+001	1.778391e+002
3630000000	-8.859411e+000	-1.673608e+002	-3.977997e+001	-5.191057e+001	-3.928484e+001	-6.454430e+000	-1.099719e+001	1.763240e+002
3635000000	-8.822377e+000	-1.684041e+002	-3.955973e+001	-5.847598e+001	-3.920594e+001	-1.423777e+001	-1.101316e+001	1.747867e+002
3640000000	-8.791413e+000	-1.694487e+002	-3.936743e+001	-6.619409e+001	-3.921801e+001	-2.215636e+001	-1.104105e+001	1.732411e+002
3645000000	-8.761097e+000	-1.704659e+002	-3.924606e+001	-7.427255e+001	-3.922806e+001	-3.035143e+001	-1.107472e+001	1.717030e+002
3650000000	-8.733663e+000	-1.714511e+002	-3.920356e+001	-8.263937e+001	-3.935834e+001	-3.874422e+001	-1.111364e+001	1.701424e+002
3655000000	-8.704957e+000	-1.723898e+002	-3.929741e+001	-9.107119e+001	-3.958887e+001	-4.626486e+001	-1.115885e+001	1.686065e+002
3660000000	-8.671328e+000	-1.732905e+002	-3.944534e+001	-9.856679e+001	-3.971840e+001	-5.334711e+001	-1.121140e+001	1.670619e+002
3665000000	-8.631576e+000	-1.741792e+002	-3.954096e+001	-1.058061e+002	-3.985457e+001	-6.038907e+001	-1.127212e+001	1.655826e+002
3670000000	-8.583383e+000	-1.750829e+002	-3.961935e+001	-1.128524e+002	-3.993594e+001	-6.699653e+001	-1.133582e+001	1.641187e+002
3675000000	-8.533156e+000	-1.760145e+002	-3.964163e+001	-1.197713e+002	-3.991050e+001	-7.408856e+001	-1.140263e+001	1.627537e+002
3680000000	-8.479716e+000	-1.769879e+002	-3.962464e+001	-1.271327e+002	-3.997568e+001	-8.193687e+001	-1.146572e+001	1.614714e+002
3685000000	-8.434284e+000	-1.780345e+002	-3.967104e+001	-1.347820e+002	-4.011800e+001	-8.932520e+001	-1.151370e+001	1.602729e+002
3690000000	-8.399484e+000	-1.790563e+002	-3.974886e+001	-1.421921e+002	-4.025899e+001	-9.671494e+001	-1.154231e+001	1.590933e+002
3695000000	-8.369669e+000	1.799345e+002	-3.985659e+001	-1.493774e+002	-4.046519e+001	-1.037884e+002	-1.156010e+001	1.579039e+002
3700000000	-8.347792e+000	1.789522e+002	-3.989784e+001	-1.561537e+002	-4.059848e+001	-1.108632e+002	-1.156429e+001	1.566874e+002
3705000000	-8.323183e+000	1.780051e+002	-3.990163e+001	-1.634888e+002	-4.077483e+001	-1.184862e+002	-1.155531e+001	1.553963e+002
3710000000	-8.297311e+000	1.770343e+002	-3.994486e+001	-1.713133e+002	-4.104598e+001	-1.262589e+002	-1.154344e+001	1.540417e+002
3715000000	-8.275992e+000	1.760457e+002	-4.006166e+001	-1.792689e+002	-4.138234e+001	-1.339035e+002	-1.152841e+001	1.526238e+002
3720000000	-8.258139e+000	1.750460e+002	-4.021090e+001	1.724420e+002	-4.182428e+001	-1.415592e+002	-1.151872e+001	1.511312e+002
3725000000	-8.245160e+000	1.740335e+002	-4.048850e+001	1.638104e+002	-4.244290e+001	-1.484126e+002	-1.151276e+001	1.496023e+002
3730000000	-8.235729e+000	1.730103e+002	-4.091150e+001	1.558919e+002	-4.311686e+001	-1.535874e+002	-1.151490e+001	1.480252e+002
3735000000	-8.227433e+000	1.720030e+002	-4.140531e+001	1.485225e+002	-4.375156e+001	-1.573678e+002	-1.151768e+001	1.463810e+002
3740000000	-8.220414e+000	1.709613e+002	-4.194286e+001	1.424719e+002	-4.415805e+001	-1.597492e+002	-1.153018e+001	1.447021e+002
3745000000	-8.219511e+000	1.699009e+002	-4.239087e+001	1.373601e+002	-4.432584e+001	-1.617314e+002	-1.154842e+001	1.429896e+002
3750000000	-8.221401e+000	1.688452e+002	-4.266697e+001	1.325336e+002	-4.430886e+001	-1.647060e+002	-1.157511e+001	1.412497e+002
3755000000	-8.227925e+000	1.678071e+002	-4.289111e+001	1.275668e+002	-4.422417e+001	-1.680888e+002	-1.161283e+001	1.394922e+002
3760000000	-8.234469e+000	1.668034e+002	-4.305953e+001	1.226978e+002	-4.404283e+001	-1.720893e+002	-1.166434e+001	1.377932e+002
3765000000	-8.240026e+000	1.658125e+002	-4.315928e+001	1.172627e+002	-4.390413e+001	-1.769571e+002	-1.171965e+001	1.360934e+002
3770000000	-8.236352e+000	1.648385e+002	-4.332457e+001	1.120393e+002	-4.373805e+001	1.780298e+002	-1.178176e+001	1.344338e+002
3775000000	-8.232373e+000	1.638088e+002	-4.338679e+001	1.071138e+002	-4.357680e+001	1.721677e+002	-1.184475e+001	1.328649e+002
3780000000	-8.234760e+000	1.627688e+002	-4.343174e+001	1.017103e+002	-4.352665e+001	1.660783e+002	-1.190236e+001	1.313133e+002
3785000000	-8.236037e+000	1.617140e+002	-4.346784e+001	9.663794e+001	-4.345495e+001	1.594279e+002	-1.195294e+001	1.297816e+002
3790000000	-8.241375e+000	1.606608e+002	-4.339239e+001	9.070141e+001	-4.358600e+001	1.527766e+002	-1.199045e+001	1.282494e+002
3795000000	-8.246671e+000	1.596213e+002	-4.348006e+001	8.422036e+001	-4.372826e+001	1.471166e+002	-1.202768e+001	1.266887e+002
3800000000	-8.247589e+000	1.585872e+002	-4.361382e+001	7.791065e+001	-4.389526e+001	1.418005e+002	-1.206444e+001	1.250753e+002
3805000000	-8.251425e+000	1.575319e+002	-4.384752e+001	7.164538e+001	-4.404848e+001	1.375906e+002	-1.210637e+001	1.234451e+002
3810000000	-8.258012e+000	1.565019e+002	-4.419310e+001	6.612130e+001	-4.407148e+001	1.343208e+002	-1.215207e+001	1.218130e+002
3815000000	-8.260798e+000	1.554676e+002	-4.452219e+001	6.175191e+001	-4.393133e+001	1.312817e+002	-1.220433e+001	1.201721e+002
3820000000	-8.264810e+000	1.544140e+002	-4.482430e+001	5.855411e+001	-4.357387e+001	1.284727e+002	-1.225450e+001	1.185601e+002
3825000000	-8.269781e+000	1.533787e+002	-4.485329e+001	5.655459e+001	-4.302372e+001	1.242810e+002	-1.230098e+001	1.169986e+002
3830000000	-8.271079e+000	1.523313e+002	-4.461577e+001	5.400306e+001	-4.247390e+001	1.187097e+002	-1.233707e+001	1.154784e+002
3835000000	-8.273495e+000	1.512598e+002	-4.425486e+001	5.065213e+001	-4.197837e+001	1.123909e+002	-1.235687e+001	1.139911e+002
3840000000	-8.274640e+000	1.501764e+002	-4.373627e+001	4.608573e+001	-4.154176e+001	1.050936e+002	-1.236086e+001	1.124080e+002
3845000000	-8.277591e+000	1.490841e+002	-4.332503e+001	4.015471e+001	-4.126239e+001	9.760500e+001	-1.235330e+001	1.107649e+002
3850000000	-8.281435e+000	1.479911e+002	-4.299927e+001	3.401025e+001	-4.103405e+001	9.030633e+001	-1.234083e+001	1.089886e+002
3855000000	-8.283239e+000	1.469174e+002	-4.270228e+001	2.748106e+001	-4.084768e+001	8.273992e+001	-1.233415e+001	1.071498e+002
3860000000	-8.278741e+000	1.458356e+002	-4.253735e+001	2.074306e+001	-4.073011e+001	7.556877e+001	-1.232910e+001	1.053028e+002
3865000000	-8.273183e+000	1.447297e+002	-4.241498e+001	1.466685e+001	-4.058892e+001	6.870351e+001	-1.232554e+001	1.033955e+002
3870000000	-8.266402e+000	1.435915e+002	-4.225445e+001	8.900199e+000	-4.040976e+001	6.178500e+001	-1.231651e+001	1.014897e+002
3875000000	-8.260852e+000	1.424278e+002	-4.205147e+001	3.058109e+000	-4.023740e+001	5.470551e+001	-1.230283e+001	9.954255e+001
3880000000	-8.257040e+000	1.412506e+002	-4.182460e+001	-2.478630e+000	-4.004140e+001	4.767944e+001	-1.229487e+001	9.756188e+001
3885000000	-8.256233e+000	1.400497e+002	-4.149536e+001	-8.347691e+000	-3.986881e+001	4.038740e+001	-1.228634e+001	9.556722e+001
3890000000	-8.261088e+000	1.388669e+002	-4.116136e+001	-1.457274e+001	-3.969936e+001	3.326573e+001	-1.228247e+001	9.355206e+001
3895000000	-8.269356e+000	1.376775e+002	-4.076670e+001	-2.106792e+001	-3.951116e+001	2.598779e+001	-1.228282e+001	9.156195e+001
3900000000	-8.282896e+000	1.365006e+002	-4.034262e+001	-2.852266e+001	-3.931095e+001	1.829990e+001	-1.228461e+001	8.955516e+001
3905000000	-8.299762e+000	1.353505e+002	-3.999795e+001	-3.691323e+001	-3.917859e+001	1.001083e+001	-1.228846e+001	8.755214e+001
3910000000	-8.321072e+000	1.341964e+002	-3.976097e+001	-4.584861e+001	-3.914825e+001	1.364345e+000	-1.229481e+001	8.557996e+001
3915000000	-8.347336e+000	1.330791e+002	-3.967498e+001	-5.491337e+001	-3.923359e+001	-6.920766e+000	-1.230856e+001	8.362285e+001
3920000000	-8.373919e+000	1.319770e+002	-3.972181e+001	-6.367802e+001	-3.939113e+001	-1.475125e+001	-1.232522e+001	8.178180e+001
3925000000	-8.401455e+000	1.308618e+002	-3.981745e+001	-7.168413e+001	-3.954894e+001	-2.179380e+001	-1.233537e+001	7.996370e+001
3930000000	-8.433126e+000	1.297385e+002	-3.990772e+001	-7.919708e+001	-3.964355e+001	-2.828611e+001	-1.234441e+001	7.815732e+001
3935000000	-8.467434e+000	1.285967e+002	-3.998396e+001	-8.631871e+001	-3.964148e+001	-3.467547e+001	-1.235282e+001	7.637233e+001
3940000000	-8.505023e+000	1.274617e+002	-4.000054e+001	-9.325436e+001	-3.959770e+001	-4.131703e+001	-1.235752e+001	7.459784e+001
3945000000	-8.547799e+000	1.263388e+002	-4.000810e+001	-1.004162e+002	-3.952315e+001	-4.801730e+001	-1.237335e+001	7.289397e+001
3950000000	-8.588193e+000	1.252217e+002	-4.005201e+001	-1.074422e+002	-3.944666e+001	-5.490719e+001	-1.237793e+001	7.125623e+001
3955000000	-8.627372e+000	1.240943e+002	-4.011346e+001	-1.141634e+002	-3.938106e+001	-6.179437e+001	-1.237203e+001	6.966738e+001
3960000000	-8.662908e+000	1.229736e+002	-4.015945e+001	-1.204441e+002	-3.927980e+001	-6.837269e+001	-1.235632e+001	6.809652e+001
3965000000	-8.691208e+000	1.218440e+002	-4.012541e+001	-1.263207e+002	-3.911635e+001	-7.533919e+001	-1.232449e+001	6.649480e+001
3970000000	-8.717129e+000	1.206915e+002	-4.000492e+001	-1.323476e+002	-3.897457e+001	-8.265342e+001	-1.228601e+001	6.479743e+001
3975000000	-8.735472e+000	1.195403e+002	-3.984148e+001	-1.387268e+002	-3.879239e+001	-9.029466e+001	-1.224418e+001	6.305493e+001
3980000000	-8.750361e+000	1.183518e+002	-3.964044e+001	-1.457230e+002	-3.866149e+001	-9.874222e+001	-1.220472e+001	6.123495e+001
3985000000	-8.766497e+000	1.171121e+002	-3.948475e+001	-1.532210e+002	-3.865138e+001	-1.072500e+002	-1.216935e+001	5.937897e+001
3990000000	-8.787038e+000	1.158598e+002	-3.940306e+001	-1.611920e+002	-3.871488e+001	-1.154931e+002	-1.213035e+001	5.755100e+001
3995000000	-8.810354e+000	1.146116e+002	-3.938823e+001	-1.690546e+002	-3.881912e+001	-1.234701e+002	-1.209322e+001	5.574320e+001
4000000000	-8.837627e+000	1.133796e+002	-3.940346e+001	-1.766413e+002	-3.894399e+001	-1.309294e+002	-1.205015e+001	5.391263e+001
4005000000	-8.865140e+000	1.121813e+002	-3.942735e+001	1.757713e+002	-3.905180e+001	-1.377929e+002	-1.200555e+001	5.211068e+001
4010000000	-8.893512e+000	1.109738e+002	-3.941618e+001	1.686438e+002	-3.904036e+001	-1.446482e+002	-1.196006e+001	5.029090e+001
4015000000	-8.922337e+000	1.097666e+002	-3.933594e+001	1.610545e+002	-3.904134e+001	-1.517792e+002	-1.191096e+001	4.846576e+001
4020000000	-8.957349e+000	1.085639e+002	-3.929003e+001	1.530191e+002	-3.900180e+001	-1.589447e+002	-1.186258e+001	4.660819e+001
4025000000	-8.995828e+000	1.073722e+002	-3.926023e+001	1.448572e+002	-3.896223e+001	-1.665496e+002	-1.181648e+001	4.470496e+001
4030000000	-9.036838e+000	1.062013e+002	-3.926546e+001	1.366211e+002	-3.898759e+001	-1.741914e+002	-1.178425e+001	4.284321e+001
4035000000	-9.075684e+000	1.050446e+002	-3.933669e+001	1.284655e+002	-3.903398e+001	1.783499e+002	-1.174900e+001	4.094635e+001
4040000000	-9.110927e+000	1.038776e+002	-3.940118e+001	1.204637e+002	-3.911041e+001	1.705141e+002	-1.172796e+001	3.908850e+001
4045000000	-9.140550e+000	1.026924e+002	-3.949091e+001	1.123871e+002	-3.926498e+001	1.629753e+002	-1.171094e+001	3.731355e+001
4050000000	-9.166672e+000	1.014732e+002	-3.963346e+001	1.045473e+002	-3.945424e+001	1.557408e+002	-1.169486e+001	3.556579e+001
4055000000	-9.191158e+000	1.002199e+002	-3.979725e+001	9.682903e+001	-3.971279e+001	1.488714e+002	-1.167828e+001	3.391001e+001
4060000000	-9.218808e+000	9.892813e+001	-4.000380e+001	8.946231e+001	-3.995429e+001	1.427327e+002	-1.165462e+001	3.229776e+001
4065000000	-9.250092e+000	9.762868e+001	-4.022936e+001	8.272744e+001	-4.015635e+001	1.372350e+002	-1.162653e+001	3.069391e+001
4070000000	-9.283233e+000	9.633907e+001	-4.037536e+001	7.634801e+001	-4.026382e+001	1.317860e+002	-1.159579e+001	2.911638e+001
4075000000	-9.321082e+000	9.509908e+001	-4.052903e+001	7.024519e+001	-4.033028e+001	1.266680e+002	-1.155697e+001	2.762260e+001
4080000000	-9.354011e+000	9.388801e+001	-4.053414e+001	6.476751e+001	-4.020841e+001	1.214649e+002	-1.151007e+001	2.615864e+001
4085000000	-9.380882e+000	9.268534e+001	-4.041471e+001	5.863126e+001	-4.003941e+001	1.154605e+002	-1.145471e+001	2.473246e+001
4090000000	-9.403805e+000	9.148502e+001	-4.025356e+001	5.215440e+001	-3.981953e+001	1.086549e+002	-1.138680e+001	2.337251e+001
4095000000	-9.424922e+000	9.027029e+001	-3.998559e+001	4.503804e+001	-3.961713e+001	1.009152e+002	-1.130326e+001	2.198210e+001
4100000000	-9.446899e+000	8.900903e+001	-3.977627e+001	3.664726e+001	-3.955916e+001	9.244875e+001	-1.121566e+001	2.060964e+001
4105000000	-9.473991e+000	8.772865e+001	-3.970087e+001	2.793837e+001	-3.962152e+001	8.393957e+001	-1.111197e+001	1.918486e+001
4110000000	-9.510133e+000	8.642928e+001	-3.972739e+001	1.935343e+001	-3.978659e+001	7.570230e+001	-1.100898e+001	1.767259e+001
4115000000	-9.557505e+000	8.510946e+001	-3.982973e+001	1.049668e+001	-4.006140e+001	6.794395e+001	-1.091311e+001	1.610823e+001
4120000000	-9.612219e+000	8.379996e+001	-4.007075e+001	2.224036e+000	-4.039013e+001	6.112725e+001	-1.082251e+001	1.450275e+001
4125000000	-9.668867e+000	8.248167e+001	-4.032686e+001	-5.010452e+000	-4.059461e+001	5.506848e+001	-1.074299e+001	1.285604e+001
4130000000	-9.731786e+000	8.115973e+001	-4.054571e+001	-1.198566e+001	-4.076723e+001	4.903271e+001	-1.068227e+001	1.121614e+001
4135000000	-9.795049e+000	7.986312e+001	-4.074152e+001	-1.829868e+001	-4.084407e+001	4.311660e+001	-1.063322e+001	9.627388e+000
4140000000	-9.850889e+000	7.857191e+001	-4.082482e+001	-2.427691e+001	-4.084127e+001	3.678694e+001	-1.059087e+001	8.126589e+000
4145000000	-9.903120e+000	7.725971e+001	-4.087446e+001	-3.073554e+001	-4.090076e+001	3.009284e+001	-1.054750e+001	6.711645e+000
4150000000	-9.951292e+000	7.592876e+001	-4.094966e+001	-3.713688e+001	-4.093530e+001	2.373006e+001	-1.049811e+001	5.316524e+000
4155000000	-9.992149e+000	7.456145e+001	-4.098280e+001	-4.305248e+001	-4.091277e+001	1.714943e+001	-1.044209e+001	3.930060e+000
4160000000	-1.003353e+001	7.316201e+001	-4.091379e+001	-4.941287e+001	-4.088359e+001	1.023076e+001	-1.038706e+001	2.556247e+000
4165000000	-1.006944e+001	7.175666e+001	-4.090316e+001	-5.629839e+001	-4.089765e+001	3.212134e+000	-1.033113e+001	1.124296e+000
4170000000	-1.010179e+001	7.033850e+001	-4.084418e+001	-6.313924e+001	-4.087983e+001	-4.020994e+000	-1.028243e+001	-2.728558e-001
4175000000	-1.013434e+001	6.890832e+001	-4.085052e+001	-7.079280e+001	-4.095426e+001	-1.152917e+001	-1.023227e+001	-1.639919e+000
4180000000	-1.016864e+001	6.747812e+001	-4.098373e+001	-7.859338e+001	-4.116890e+001	-1.858325e+001	-1.017972e+001	-2.974144e+000
4185000000	-1.020314e+001	6.606398e+001	-4.125523e+001	-8.564719e+001	-4.137450e+001	-2.464183e+001	-1.012358e+001	-4.282383e+000
4190000000	-1.023527e+001	6.468353e+001	-4.152417e+001	-9.179616e+001	-4.153118e+001	-2.992996e+001	-1.005964e+001	-5.611568e+000
4195000000	-1.026669e+001	6.333211e+001	-4.175400e+001	-9.695693e+001	-4.153709e+001	-3.462970e+001	-9.998229e+000	-6.914377e+000
4200000000	-1.029461e+001	6.198564e+001	-4.176527e+001	-1.014288e+002	-4.137696e+001	-3.999982e+001	-9.936039e+000	-8.211587e+000
4205000000	-1.031840e+001	6.059826e+001	-4.162058e+001	-1.067334e+002	-4.121086e+001	-4.625658e+001	-9.869607e+000	-9.518887e+000
4210000000	-1.034218e+001	5.916163e+001	-4.142672e+001	-1.127842e+002	-4.106496e+001	-5.299767e+001	-9.810353e+000	-1.083798e+001
4215000000	-1.036672e+001	5.766735e+001	-4.121332e+001	-1.193573e+002	-4.090975e+001	-6.025009e+001	-9.753625e+000	-1.214088e+001
4220000000	-1.039642e+001	5.610874e+001	-4.096107e+001	-1.267174e+002	-4.081673e+001	-6.815976e+001	-9.701214e+000	-1.344912e+001
4225000000	-1.043533e+001	5.453165e+001	-4.079664e+001	-1.347260e+002	-4.087714e+001	-7.623473e+001	-9.652327e+000	-1.472260e+001
4230000000	-1.048487e+001	5.293318e+001	-4.070221e+001	-1.430172e+002	-4.097422e+001	-8.400624e+001	-9.610044e+000	-1.596151e+001
4235000000	-1.054074e+001	5.138956e+001	-4.065930e+001	-1.516847e+002	-4.117985e+001	-9.162108e+001	-9.563732e+000	-1.716584e+001
4240000000	-1.059764e+001	4.991681e+001	-4.071977e+001	-1.601495e+002	-4.140558e+001	-9.856900e+001	-9.517867e+000	-1.831553e+001
4245000000	-1.064408e+001	4.850780e+001	-4.087799e+001	-1.684171e+002	-4.168212e+001	-1.050773e+002	-9.464372e+000	-1.942689e+001
4250000000	-1.067797e+001	4.710695e+001	-4.112938e+001	-1.760695e+002	-4.190982e+001	-1.106163e+002	-9.405434e+000	-2.056806e+001
4255000000	-1.069814e+001	4.571494e+001	-4.145488e+001	1.770274e+002	-4.206177e+001	-1.158139e+002	-9.345819e+000	-2.167435e+001
