!Agilent Technologies,E5071B,MY42403545,A.09.10
!Date: Thu Jul 11 05:21:55 2019
!Data & Calibration Information:
!Freq	S11:SOLT2(ON)	S21:SOLT2(ON)	S12:SOLT2(ON)	S22:SOLT2(ON)
# Hz S dB R 50
3500000000	-1.012023e+001	-1.376389e+002	-3.806106e+001	1.604467e+002	-3.799460e+001	1.623661e+002	-1.119321e+001	-1.526459e+002
3505000000	-1.006617e+001	-1.387413e+002	-3.797648e+001	1.553645e+002	-3.782227e+001	1.567655e+002	-1.116112e+001	-1.536705e+002
3510000000	-1.001218e+001	-1.398084e+002	-3.806250e+001	1.501485e+002	-3.789391e+001	1.509753e+002	-1.113647e+001	-1.546977e+002
3515000000	-9.960658e+000	-1.408703e+002	-3.823421e+001	1.454014e+002	-3.804460e+001	1.458628e+002	-1.111599e+001	-1.557071e+002
3520000000	-9.916269e+000	-1.418988e+002	-3.849459e+001	1.410498e+002	-3.831538e+001	1.410795e+002	-1.109992e+001	-1.567236e+002
3525000000	-9.872801e+000	-1.428776e+002	-3.886600e+001	1.376415e+002	-3.871758e+001	1.375087e+002	-1.109083e+001	-1.577272e+002
3530000000	-9.831819e+000	-1.438318e+002	-3.918464e+001	1.357403e+002	-3.903169e+001	1.355341e+002	-1.108000e+001	-1.587079e+002
3535000000	-9.789453e+000	-1.447167e+002	-3.933354e+001	1.348463e+002	-3.915765e+001	1.342590e+002	-1.106534e+001	-1.597216e+002
3540000000	-9.739101e+000	-1.455599e+002	-3.924706e+001	1.343491e+002	-3.911098e+001	1.333151e+002	-1.104993e+001	-1.607689e+002
3545000000	-9.685817e+000	-1.463828e+002	-3.889304e+001	1.327569e+002	-3.881453e+001	1.312648e+002	-1.102802e+001	-1.618520e+002
3550000000	-9.626118e+000	-1.471988e+002	-3.850458e+001	1.295556e+002	-3.852093e+001	1.277708e+002	-1.100065e+001	-1.630233e+002
3555000000	-9.559700e+000	-1.480579e+002	-3.818214e+001	1.254703e+002	-3.831922e+001	1.238868e+002	-1.098005e+001	-1.642675e+002
3560000000	-9.500142e+000	-1.489814e+002	-3.791908e+001	1.203763e+002	-3.812067e+001	1.191924e+002	-1.096288e+001	-1.655738e+002
3565000000	-9.447745e+000	-1.498896e+002	-3.782090e+001	1.146929e+002	-3.807345e+001	1.139640e+002	-1.095196e+001	-1.669484e+002
3570000000	-9.403055e+000	-1.509469e+002	-3.784338e+001	1.112067e+002	-3.806117e+001	1.114541e+002	-1.095317e+001	-1.683439e+002
3575000000	-9.364454e+000	-1.518302e+002	-3.799589e+001	1.061049e+002	-3.821533e+001	1.070506e+002	-1.095714e+001	-1.697655e+002
3580000000	-9.323515e+000	-1.526696e+002	-3.825295e+001	1.016200e+002	-3.841181e+001	1.033016e+002	-1.096591e+001	-1.711946e+002
3585000000	-9.275636e+000	-1.535288e+002	-3.855335e+001	9.824830e+001	-3.859817e+001	1.003962e+002	-1.097934e+001	-1.726038e+002
3590000000	-9.226318e+000	-1.544163e+002	-3.880587e+001	9.570033e+001	-3.871292e+001	9.783944e+001	-1.099584e+001	-1.739837e+002
3595000000	-9.177619e+000	-1.553398e+002	-3.896447e+001	9.408213e+001	-3.875849e+001	9.579695e+001	-1.101573e+001	-1.753223e+002
3600000000	-9.130340e+000	-1.562932e+002	-3.890415e+001	9.293052e+001	-3.863262e+001	9.409185e+001	-1.103284e+001	-1.766332e+002
3605000000	-9.091654e+000	-1.572556e+002	-3.863861e+001	9.106618e+001	-3.834126e+001	9.164199e+001	-1.104913e+001	-1.779318e+002
3610000000	-9.053468e+000	-1.582294e+002	-3.827100e+001	8.794626e+001	-3.798079e+001	8.811038e+001	-1.106166e+001	-1.792027e+002
3615000000	-9.021910e+000	-1.592226e+002	-3.789583e+001	8.341295e+001	-3.758630e+001	8.329465e+001	-1.107139e+001	1.795093e+002
3620000000	-8.995847e+000	-1.602006e+002	-3.766599e+001	7.751495e+001	-3.734906e+001	7.694754e+001	-1.108065e+001	1.781981e+002
3625000000	-8.968800e+000	-1.611298e+002	-3.765470e+001	7.110216e+001	-3.735094e+001	7.013163e+001	-1.108795e+001	1.768626e+002
3630000000	-8.939915e+000	-1.620348e+002	-3.785577e+001	6.499244e+001	-3.755068e+001	6.361348e+001	-1.110169e+001	1.755123e+002
3635000000	-8.903495e+000	-1.629174e+002	-3.822710e+001	5.986117e+001	-3.794650e+001	5.789310e+001	-1.111791e+001	1.741778e+002
3640000000	-8.861705e+000	-1.638617e+002	-3.866825e+001	5.610643e+001	-3.846458e+001	5.344967e+001	-1.113407e+001	1.728625e+002
3645000000	-8.816874e+000	-1.648620e+002	-3.903218e+001	5.381125e+001	-3.895481e+001	5.081900e+001	-1.114439e+001	1.715507e+002
3650000000	-8.777767e+000	-1.659095e+002	-3.924504e+001	5.225303e+001	-3.930125e+001	4.927894e+001	-1.115101e+001	1.701998e+002
3655000000	-8.743641e+000	-1.669993e+002	-3.931853e+001	5.096827e+001	-3.951138e+001	4.828273e+001	-1.115638e+001	1.688330e+002
3660000000	-8.715390e+000	-1.681285e+002	-3.921273e+001	4.952590e+001	-3.948984e+001	4.759648e+001	-1.116233e+001	1.674356e+002
3665000000	-8.698745e+000	-1.692922e+002	-3.899061e+001	4.745688e+001	-3.928703e+001	4.631732e+001	-1.117134e+001	1.660569e+002
3670000000	-8.694247e+000	-1.704695e+002	-3.867808e+001	4.457287e+001	-3.896291e+001	4.416127e+001	-1.117912e+001	1.646779e+002
3675000000	-8.702111e+000	-1.715991e+002	-3.835845e+001	4.044162e+001	-3.856849e+001	4.050464e+001	-1.118468e+001	1.632987e+002
3680000000	-8.716710e+000	-1.726642e+002	-3.811944e+001	3.539179e+001	-3.826335e+001	3.550587e+001	-1.119105e+001	1.619025e+002
3685000000	-8.728581e+000	-1.736520e+002	-3.800687e+001	2.979627e+001	-3.813906e+001	2.986281e+001	-1.119793e+001	1.604998e+002
3690000000	-8.732053e+000	-1.745923e+002	-3.806161e+001	2.406761e+001	-3.819274e+001	2.414010e+001	-1.120719e+001	1.590899e+002
3695000000	-8.724078e+000	-1.755435e+002	-3.824201e+001	1.889554e+001	-3.836186e+001	1.913208e+001	-1.122163e+001	1.576742e+002
3700000000	-8.710324e+000	-1.765508e+002	-3.847366e+001	1.446992e+001	-3.857210e+001	1.472020e+001	-1.124327e+001	1.562637e+002
3705000000	-8.695365e+000	-1.776296e+002	-3.872769e+001	1.062138e+001	-3.880945e+001	1.079518e+001	-1.126824e+001	1.548758e+002
3710000000	-8.686410e+000	-1.787581e+002	-3.895969e+001	7.562383e+000	-3.903284e+001	7.740700e+000	-1.129443e+001	1.535145e+002
3715000000	-8.687139e+000	-1.798928e+002	-3.908928e+001	5.093901e+000	-3.916603e+001	5.220023e+000	-1.131679e+001	1.521506e+002
3720000000	-8.696805e+000	1.790192e+002	-3.908875e+001	2.528362e+000	-3.919146e+001	2.670766e+000	-1.133822e+001	1.507378e+002
3725000000	-8.708060e+000	1.779959e+002	-3.900758e+001	-5.568236e-001	-3.915316e+001	-2.902888e-001	-1.136133e+001	1.492463e+002
3730000000	-8.716128e+000	1.770149e+002	-3.889605e+001	-4.420288e+000	-3.906983e+001	-3.733647e+000	-1.139261e+001	1.476684e+002
3735000000	-8.718235e+000	1.760867e+002	-3.886922e+001	-8.848292e+000	-3.903425e+001	-7.815211e+000	-1.142641e+001	1.460089e+002
3740000000	-8.713271e+000	1.751724e+002	-3.891168e+001	-1.337164e+001	-3.904919e+001	-1.212348e+001	-1.147417e+001	1.442775e+002
3745000000	-8.701522e+000	1.742399e+002	-3.902745e+001	-1.794521e+001	-3.913422e+001	-1.655117e+001	-1.153077e+001	1.425162e+002
3750000000	-8.686751e+000	1.732755e+002	-3.925926e+001	-2.219646e+001	-3.934231e+001	-2.083584e+001	-1.159836e+001	1.407866e+002
3755000000	-8.669668e+000	1.722733e+002	-3.958040e+001	-2.571290e+001	-3.964845e+001	-2.454607e+001	-1.166951e+001	1.391235e+002
3760000000	-8.657016e+000	1.712013e+002	-3.994302e+001	-2.803525e+001	-3.998891e+001	-2.697842e+001	-1.173802e+001	1.375322e+002
3765000000	-8.654084e+000	1.700873e+002	-4.021412e+001	-2.882718e+001	-4.022661e+001	-2.796777e+001	-1.179531e+001	1.359810e+002
3770000000	-8.663593e+000	1.689729e+002	-4.021561e+001	-2.898652e+001	-4.021478e+001	-2.855419e+001	-1.183832e+001	1.344547e+002
3775000000	-8.686400e+000	1.678866e+002	-3.994557e+001	-2.968296e+001	-3.994992e+001	-2.955390e+001	-1.186781e+001	1.329161e+002
3780000000	-8.717237e+000	1.668835e+002	-3.950018e+001	-3.181726e+001	-3.953208e+001	-3.201190e+001	-1.188487e+001	1.313307e+002
3785000000	-8.740705e+000	1.659292e+002	-3.905799e+001	-3.567158e+001	-3.916861e+001	-3.611067e+001	-1.189712e+001	1.296955e+002
3790000000	-8.756719e+000	1.649787e+002	-3.873911e+001	-4.060419e+001	-3.889961e+001	-4.082581e+001	-1.190635e+001	1.280180e+002
3795000000	-8.765354e+000	1.639891e+002	-3.853731e+001	-4.596753e+001	-3.870856e+001	-4.613070e+001	-1.192167e+001	1.263096e+002
3800000000	-8.767891e+000	1.629519e+002	-3.844133e+001	-5.160439e+001	-3.866196e+001	-5.173407e+001	-1.194490e+001	1.246106e+002
3805000000	-8.774154e+000	1.618513e+002	-3.844727e+001	-5.736690e+001	-3.870774e+001	-5.732582e+001	-1.197500e+001	1.229523e+002
3810000000	-8.785470e+000	1.607106e+002	-3.857445e+001	-6.287797e+001	-3.886972e+001	-6.276211e+001	-1.200799e+001	1.213528e+002
3815000000	-8.802822e+000	1.595727e+002	-3.879842e+001	-6.795425e+001	-3.915956e+001	-6.770706e+001	-1.203645e+001	1.197870e+002
3820000000	-8.823506e+000	1.584348e+002	-3.912599e+001	-7.217227e+001	-3.952808e+001	-7.175006e+001	-1.205163e+001	1.182259e+002
3825000000	-8.847408e+000	1.573135e+002	-3.945824e+001	-7.489844e+001	-3.987197e+001	-7.433854e+001	-1.205668e+001	1.166128e+002
3830000000	-8.874340e+000	1.561867e+002	-3.964769e+001	-7.662154e+001	-4.006563e+001	-7.593177e+001	-1.205350e+001	1.149245e+002
3835000000	-8.906834e+000	1.551038e+002	-3.964170e+001	-7.831076e+001	-4.001593e+001	-7.737143e+001	-1.205288e+001	1.131465e+002
3840000000	-8.936979e+000	1.540754e+002	-3.948261e+001	-8.097951e+001	-3.977347e+001	-7.997288e+001	-1.205921e+001	1.112822e+002
3845000000	-8.957951e+000	1.530773e+002	-3.932299e+001	-8.503709e+001	-3.955304e+001	-8.398164e+001	-1.207374e+001	1.093993e+002
3850000000	-8.969229e+000	1.520613e+002	-3.928362e+001	-9.024180e+001	-3.944409e+001	-8.902955e+001	-1.209423e+001	1.075253e+002
3855000000	-8.976408e+000	1.509819e+002	-3.943409e+001	-9.588560e+001	-3.949727e+001	-9.460957e+001	-1.211772e+001	1.057045e+002
3860000000	-8.989097e+000	1.498228e+002	-3.977366e+001	-1.011877e+002	-3.972772e+001	-9.983686e+001	-1.213721e+001	1.039396e+002
3865000000	-9.016034e+000	1.486291e+002	-4.023569e+001	-1.056488e+002	-4.007870e+001	-1.045774e+002	-1.214558e+001	1.021862e+002
3870000000	-9.051476e+000	1.474668e+002	-4.077612e+001	-1.088650e+002	-4.055399e+001	-1.083314e+002	-1.214495e+001	1.004151e+002
3875000000	-9.089959e+000	1.463264e+002	-4.129844e+001	-1.103807e+002	-4.104870e+001	-1.101940e+002	-1.213696e+001	9.862817e+001
3880000000	-9.127499e+000	1.452296e+002	-4.166888e+001	-1.101934e+002	-4.139452e+001	-1.106048e+002	-1.212495e+001	9.680289e+001
3885000000	-9.157954e+000	1.441401e+002	-4.169644e+001	-1.088019e+002	-4.146967e+001	-1.099693e+002	-1.211700e+001	9.492077e+001
3890000000	-9.186513e+000	1.430218e+002	-4.124362e+001	-1.079127e+002	-4.111921e+001	-1.095750e+002	-1.211948e+001	9.301123e+001
3895000000	-9.214087e+000	1.418879e+002	-4.051145e+001	-1.096981e+002	-4.049895e+001	-1.115825e+002	-1.213209e+001	9.111407e+001
3900000000	-9.238470e+000	1.407649e+002	-3.981695e+001	-1.144007e+002	-3.991489e+001	-1.161450e+002	-1.215398e+001	8.923191e+001
3905000000	-9.259933e+000	1.396383e+002	-3.933442e+001	-1.210581e+002	-3.949546e+001	-1.224618e+002	-1.218109e+001	8.739770e+001
3910000000	-9.277574e+000	1.385103e+002	-3.915831e+001	-1.287385e+002	-3.939095e+001	-1.297876e+002	-1.220859e+001	8.560460e+001
3915000000	-9.290231e+000	1.373713e+002	-3.930997e+001	-1.364094e+002	-3.959919e+001	-1.367421e+002	-1.223602e+001	8.386603e+001
3920000000	-9.302289e+000	1.362162e+002	-3.973253e+001	-1.432542e+002	-4.000377e+001	-1.427749e+002	-1.225280e+001	8.219258e+001
3925000000	-9.312493e+000	1.350494e+002	-4.038491e+001	-1.485302e+002	-4.061226e+001	-1.475203e+002	-1.225176e+001	8.049288e+001
3930000000	-9.322886e+000	1.338563e+002	-4.112396e+001	-1.514642e+002	-4.133634e+001	-1.501927e+002	-1.223743e+001	7.870847e+001
3935000000	-9.337934e+000	1.326408e+002	-4.174669e+001	-1.519061e+002	-4.195715e+001	-1.501434e+002	-1.221811e+001	7.683188e+001
3940000000	-9.360067e+000	1.314457e+002	-4.205924e+001	-1.506573e+002	-4.221332e+001	-1.483523e+002	-1.219912e+001	7.484522e+001
3945000000	-9.391378e+000	1.302860e+002	-4.196410e+001	-1.491819e+002	-4.203633e+001	-1.466689e+002	-1.219035e+001	7.286654e+001
3950000000	-9.423694e+000	1.291724e+002	-4.151679e+001	-1.491909e+002	-4.151336e+001	-1.465968e+002	-1.217573e+001	7.090588e+001
3955000000	-9.453855e+000	1.280688e+002	-4.096734e+001	-1.514387e+002	-4.085516e+001	-1.490151e+002	-1.216013e+001	6.899866e+001
3960000000	-9.482374e+000	1.269517e+002	-4.049300e+001	-1.555665e+002	-4.031113e+001	-1.538318e+002	-1.213363e+001	6.712429e+001
3965000000	-9.511078e+000	1.258195e+002	-4.018460e+001	-1.608304e+002	-3.999366e+001	-1.597522e+002	-1.209471e+001	6.524236e+001
3970000000	-9.539844e+000	1.246651e+002	-4.008489e+001	-1.664701e+002	-3.992180e+001	-1.658911e+002	-1.205071e+001	6.332170e+001
3975000000	-9.567186e+000	1.234699e+002	-4.016754e+001	-1.717460e+002	-4.004517e+001	-1.713282e+002	-1.200818e+001	6.138672e+001
3980000000	-9.600213e+000	1.222310e+002	-4.037773e+001	-1.762216e+002	-4.026295e+001	-1.758698e+002	-1.196865e+001	5.947702e+001
3985000000	-9.638468e+000	1.209510e+002	-4.062647e+001	-1.790296e+002	-4.049582e+001	-1.787019e+002	-1.192978e+001	5.761004e+001
3990000000	-9.683206e+000	1.196447e+002	-4.067799e+001	1.794285e+002	-4.050484e+001	1.794942e+002	-1.188081e+001	5.580583e+001
3995000000	-9.733934e+000	1.183450e+002	-4.045200e+001	1.776855e+002	-4.027975e+001	1.773099e+002	-1.182859e+001	5.401727e+001
4000000000	-9.787548e+000	1.170665e+002	-4.005313e+001	1.747136e+002	-3.989473e+001	1.739859e+002	-1.177313e+001	5.219897e+001
4005000000	-9.842656e+000	1.158046e+002	-3.963197e+001	1.699915e+002	-3.950688e+001	1.689817e+002	-1.172002e+001	5.038299e+001
4010000000	-9.895505e+000	1.145917e+002	-3.935640e+001	1.637587e+002	-3.927994e+001	1.626417e+002	-1.166983e+001	4.854638e+001
4015000000	-9.939890e+000	1.134084e+002	-3.929019e+001	1.568356e+002	-3.925486e+001	1.558789e+002	-1.162462e+001	4.671578e+001
4020000000	-9.976915e+000	1.122307e+002	-3.945934e+001	1.500649e+002	-3.943291e+001	1.493601e+002	-1.158481e+001	4.488027e+001
4025000000	-1.000844e+001	1.110440e+002	-3.978524e+001	1.439936e+002	-3.974734e+001	1.434789e+002	-1.154866e+001	4.305207e+001
4030000000	-1.003396e+001	1.098236e+002	-4.020358e+001	1.389078e+002	-4.013862e+001	1.385363e+002	-1.151887e+001	4.126993e+001
4035000000	-1.005797e+001	1.085552e+002	-4.064109e+001	1.347852e+002	-4.051490e+001	1.343882e+002	-1.148449e+001	3.951551e+001
4040000000	-1.008455e+001	1.072340e+002	-4.106966e+001	1.314407e+002	-4.089381e+001	1.306993e+002	-1.145212e+001	3.780927e+001
4045000000	-1.012015e+001	1.058716e+002	-4.146690e+001	1.288618e+002	-4.126236e+001	1.275534e+002	-1.141415e+001	3.614184e+001
4050000000	-1.016884e+001	1.045267e+002	-4.181004e+001	1.272021e+002	-4.162222e+001	1.251985e+002	-1.136779e+001	3.449286e+001
4055000000	-1.022506e+001	1.032597e+002	-4.198805e+001	1.264920e+002	-4.191998e+001	1.238295e+002	-1.131592e+001	3.282978e+001
4060000000	-1.028134e+001	1.020813e+002	-4.186769e+001	1.256743e+002	-4.197389e+001	1.230885e+002	-1.126344e+001	3.114458e+001
4065000000	-1.032900e+001	1.009480e+002	-4.157194e+001	1.231214e+002	-4.179960e+001	1.213135e+002	-1.121394e+001	2.945963e+001
4070000000	-1.036779e+001	9.980510e+001	-4.134031e+001	1.189992e+002	-4.158879e+001	1.181541e+002	-1.116802e+001	2.779185e+001
4075000000	-1.040014e+001	9.864502e+001	-4.125859e+001	1.139383e+002	-4.143354e+001	1.137395e+002	-1.112325e+001	2.618530e+001
4080000000	-1.042827e+001	9.743943e+001	-4.139164e+001	1.088002e+002	-4.145969e+001	1.086699e+002	-1.107837e+001	2.463319e+001
4085000000	-1.045339e+001	9.617848e+001	-4.165847e+001	1.045736e+002	-4.167203e+001	1.040118e+002	-1.103026e+001	2.313238e+001
4090000000	-1.048066e+001	9.484602e+001	-4.194000e+001	1.011767e+002	-4.197043e+001	1.001054e+002	-1.097727e+001	2.168295e+001
4095000000	-1.051507e+001	9.348379e+001	-4.218906e+001	9.848233e+001	-4.229799e+001	9.715546e+001	-1.091677e+001	2.023640e+001
4100000000	-1.055500e+001	9.211535e+001	-4.237046e+001	9.628598e+001	-4.256841e+001	9.523988e+001	-1.085413e+001	1.881917e+001
4105000000	-1.059932e+001	9.078912e+001	-4.246599e+001	9.425679e+001	-4.270652e+001	9.408912e+001	-1.078319e+001	1.738235e+001
4110000000	-1.064338e+001	8.954272e+001	-4.243113e+001	9.208755e+001	-4.261138e+001	9.257820e+001	-1.070996e+001	1.589798e+001
4115000000	-1.068032e+001	8.833415e+001	-4.236894e+001	8.907579e+001	-4.246863e+001	8.991531e+001	-1.063693e+001	1.439185e+001
4120000000	-1.070720e+001	8.710996e+001	-4.237562e+001	8.572041e+001	-4.237029e+001	8.660918e+001	-1.056315e+001	1.282946e+001
4125000000	-1.072843e+001	8.583604e+001	-4.244265e+001	8.243998e+001	-4.236722e+001	8.274773e+001	-1.049663e+001	1.121630e+001
4130000000	-1.074994e+001	8.451713e+001	-4.250505e+001	7.965469e+001	-4.246072e+001	7.949140e+001	-1.043871e+001	9.588732e+000
4135000000	-1.077486e+001	8.317232e+001	-4.252137e+001	7.673629e+001	-4.253800e+001	7.660034e+001	-1.038991e+001	7.981456e+000
4140000000	-1.080032e+001	8.180549e+001	-4.258776e+001	7.361425e+001	-4.263091e+001	7.388247e+001	-1.034855e+001	6.446252e+000
4145000000	-1.083172e+001	8.041453e+001	-4.269191e+001	7.147921e+001	-4.266798e+001	7.205096e+001	-1.030447e+001	5.009250e+000
4150000000	-1.087188e+001	7.903652e+001	-4.263658e+001	7.000622e+001	-4.251872e+001	7.049257e+001	-1.025061e+001	3.637551e+000
4155000000	-1.091983e+001	7.767048e+001	-4.239473e+001	6.802810e+001	-4.221425e+001	6.776719e+001	-1.018211e+001	2.324535e+000
4160000000	-1.097413e+001	7.635995e+001	-4.205086e+001	6.489278e+001	-4.190277e+001	6.379362e+001	-1.010161e+001	9.764495e-001
4165000000	-1.102372e+001	7.512491e+001	-4.173294e+001	6.067097e+001	-4.171346e+001	5.914667e+001	-1.001637e+001	-4.646573e-001
4170000000	-1.106135e+001	7.390790e+001	-4.146821e+001	5.544232e+001	-4.160951e+001	5.427393e+001	-9.941132e+000	-1.931801e+000
4175000000	-1.108558e+001	7.263874e+001	-4.134444e+001	4.938313e+001	-4.154172e+001	4.923746e+001	-9.875570e+000	-3.392830e+000
4180000000	-1.110266e+001	7.126873e+001	-4.144268e+001	4.296929e+001	-4.156108e+001	4.384068e+001	-9.817877e+000	-4.807727e+000
4185000000	-1.111818e+001	6.979412e+001	-4.177631e+001	3.718160e+001	-4.173019e+001	3.835945e+001	-9.765856e+000	-6.154629e+000
4190000000	-1.114231e+001	6.823289e+001	-4.219208e+001	3.290558e+001	-4.204124e+001	3.336053e+001	-9.716002e+000	-7.455154e+000
4195000000	-1.117926e+001	6.663268e+001	-4.259906e+001	2.977197e+001	-4.247232e+001	2.961792e+001	-9.665554e+000	-8.688763e+000
4200000000	-1.122889e+001	6.506276e+001	-4.293858e+001	2.758486e+001	-4.285124e+001	2.747984e+001	-9.613257e+000	-9.861285e+000
4205000000	-1.128057e+001	6.354709e+001	-4.314976e+001	2.631007e+001	-4.304520e+001	2.613611e+001	-9.553562e+000	-1.100977e+001
4210000000	-1.132751e+001	6.208421e+001	-4.311935e+001	2.527075e+001	-4.301366e+001	2.476372e+001	-9.488254e+000	-1.218712e+001
4215000000	-1.136409e+001	6.063912e+001	-4.292735e+001	2.323529e+001	-4.287646e+001	2.257781e+001	-9.420790e+000	-1.341893e+001
4220000000	-1.139146e+001	5.918672e+001	-4.268675e+001	1.999674e+001	-4.267699e+001	1.937282e+001	-9.356962e+000	-1.471200e+001
4225000000	-1.141201e+001	5.772929e+001	-4.249575e+001	1.587284e+001	-4.250877e+001	1.537536e+001	-9.300166e+000	-1.605198e+001
4230000000	-1.143025e+001	5.620747e+001	-4.239437e+001	1.113306e+001	-4.241339e+001	1.073132e+001	-9.255020e+000	-1.740872e+001
4235000000	-1.145386e+001	5.466676e+001	-4.239958e+001	6.018238e+000	-4.242651e+001	5.697032e+000	-9.220281e+000	-1.871582e+001
4240000000	-1.148498e+001	5.314976e+001	-4.253486e+001	9.032500e-001	-4.254696e+001	6.655188e-001	-9.187795e+000	-1.995152e+001
4245000000	-1.151896e+001	5.169828e+001	-4.280380e+001	-3.796914e+000	-4.277080e+001	-3.994959e+000	-9.150478e+000	-2.109813e+001
4250000000	-1.155099e+001	5.030355e+001	-4.318553e+001	-7.542742e+000	-4.314580e+001	-7.975369e+000	-9.101664e+000	-2.219273e+001
4255000000	-1.157973e+001	4.897036e+001	-4.354025e+001	-9.530875e+000	-4.354587e+001	-1.031715e+001	-9.040486e+000	-2.327421e+001
4260000000	-1.160234e+001	4.764548e+001	-4.364565e+001	-1.061094e+001	-4.375096e+001	-1.101919e+001	-8.970889e+000	-2.438029e+001
