!Agilent Technologies,E5071B,MY42403545,A.09.10
!Date: Thu Jul 11 07:09:11 2019
!Data & Calibration Information:
!Freq	S11:SOLT3(ON)	S12:SOLT3(ON)	S13:SOLT3(ON)
!	S21:SOLT3(ON)	S22:SOLT3(ON)	S23:SOLT3(ON)
!	S31:SOLT3(ON)	S32:SOLT3(ON)	S33:SOLT3(ON)
# Hz S dB R 50
3500000000	-1.916565e+001	1.627682e+002	-3.676109e+001	-1.397425e+002	-7.462609e+001	4.171633e+001
	-3.678758e+001	-1.397418e+002	-2.294755e+001	1.434205e+002	-6.979062e+001	7.877081e+001
	-7.404264e+001	3.419038e+001	-6.943535e+001	7.551446e+001	-2.255658e+001	-1.349503e+002
3505000000	-1.918124e+001	1.623947e+002	-3.669742e+001	-1.401402e+002	-7.506020e+001	4.622654e+001
	-3.671628e+001	-1.402423e+002	-2.291540e+001	1.429424e+002	-6.989096e+001	7.530246e+001
	-7.469547e+001	3.951906e+001	-6.964840e+001	7.236171e+001	-2.252690e+001	-1.353919e+002
3510000000	-1.920117e+001	1.619954e+002	-3.664524e+001	-1.406033e+002	-7.528437e+001	5.130413e+001
	-3.666399e+001	-1.407746e+002	-2.288552e+001	1.424671e+002	-7.002786e+001	7.242670e+001
	-7.511567e+001	4.417419e+001	-6.977255e+001	6.926559e+001	-2.249214e+001	-1.358035e+002
3515000000	-1.921823e+001	1.615561e+002	-3.660442e+001	-1.410511e+002	-7.539132e+001	5.593230e+001
	-3.663049e+001	-1.413238e+002	-2.285782e+001	1.420037e+002	-7.026463e+001	6.993083e+001
	-7.553358e+001	4.887502e+001	-6.998911e+001	6.621640e+001	-2.246682e+001	-1.362173e+002
3520000000	-1.923558e+001	1.610805e+002	-3.656752e+001	-1.415288e+002	-7.520115e+001	6.049088e+001
	-3.660610e+001	-1.418166e+002	-2.283096e+001	1.415233e+002	-7.042359e+001	6.793028e+001
	-7.550778e+001	5.304403e+001	-7.017402e+001	6.332194e+001	-2.243356e+001	-1.366227e+002
3525000000	-1.925046e+001	1.605725e+002	-3.653189e+001	-1.420237e+002	-7.485143e+001	6.201889e+001
	-3.658232e+001	-1.423033e+002	-2.280202e+001	1.410371e+002	-7.055286e+001	6.628530e+001
	-7.560369e+001	5.732722e+001	-7.036737e+001	6.095469e+001	-2.240450e+001	-1.370061e+002
3530000000	-1.926412e+001	1.600236e+002	-3.649927e+001	-1.425078e+002	-7.496637e+001	6.465121e+001
	-3.656308e+001	-1.427625e+002	-2.277571e+001	1.405510e+002	-7.076652e+001	6.457354e+001
	-7.562796e+001	6.007196e+001	-7.060132e+001	5.881594e+001	-2.237743e+001	-1.373776e+002
3535000000	-1.927096e+001	1.594427e+002	-3.647149e+001	-1.429900e+002	-7.465857e+001	6.666475e+001
	-3.654483e+001	-1.432076e+002	-2.274549e+001	1.400170e+002	-7.093552e+001	6.338978e+001
	-7.552083e+001	6.293465e+001	-7.071504e+001	5.695680e+001	-2.235147e+001	-1.377244e+002
3540000000	-1.927510e+001	1.588376e+002	-3.645062e+001	-1.434533e+002	-7.451496e+001	6.749754e+001
	-3.652785e+001	-1.436546e+002	-2.271808e+001	1.395294e+002	-7.109877e+001	6.197253e+001
	-7.530981e+001	6.546185e+001	-7.088082e+001	5.555367e+001	-2.232582e+001	-1.380547e+002
3545000000	-1.926935e+001	1.582335e+002	-3.643028e+001	-1.439145e+002	-7.432741e+001	6.876994e+001
	-3.651047e+001	-1.440878e+002	-2.268928e+001	1.390276e+002	-7.119980e+001	6.124448e+001
	-7.495464e+001	6.805803e+001	-7.109656e+001	5.449009e+001	-2.230028e+001	-1.383829e+002
3550000000	-1.925705e+001	1.576270e+002	-3.641700e+001	-1.443691e+002	-7.395313e+001	6.889960e+001
	-3.649368e+001	-1.445022e+002	-2.265941e+001	1.385294e+002	-7.131810e+001	6.028712e+001
	-7.487782e+001	6.937000e+001	-7.125560e+001	5.334968e+001	-2.227495e+001	-1.386903e+002
3555000000	-1.923832e+001	1.570083e+002	-3.640260e+001	-1.448347e+002	-7.365692e+001	6.931656e+001
	-3.647835e+001	-1.449206e+002	-2.262823e+001	1.380141e+002	-7.132958e+001	5.934011e+001
	-7.439670e+001	7.126920e+001	-7.135045e+001	5.214002e+001	-2.225029e+001	-1.389846e+002
3560000000	-1.921625e+001	1.564011e+002	-3.639163e+001	-1.452861e+002	-7.361089e+001	6.946121e+001
	-3.646421e+001	-1.453280e+002	-2.259546e+001	1.374768e+002	-7.144224e+001	5.817108e+001
	-7.410537e+001	7.134714e+001	-7.146817e+001	5.108354e+001	-2.223049e+001	-1.392821e+002
3565000000	-1.918695e+001	1.557575e+002	-3.637953e+001	-1.457167e+002	-7.334096e+001	6.877751e+001
	-3.644924e+001	-1.457410e+002	-2.255982e+001	1.369292e+002	-7.139641e+001	5.679004e+001
	-7.378115e+001	7.004996e+001	-7.142946e+001	4.990446e+001	-2.221545e+001	-1.395715e+002
3570000000	-1.915317e+001	1.551325e+002	-3.636968e+001	-1.461365e+002	-7.320530e+001	6.777022e+001
	-3.643467e+001	-1.461479e+002	-2.252261e+001	1.363695e+002	-7.141364e+001	5.504708e+001
	-7.346819e+001	6.908159e+001	-7.159749e+001	4.870882e+001	-2.220063e+001	-1.398574e+002
3575000000	-1.911314e+001	1.545456e+002	-3.635899e+001	-1.465603e+002	-7.318317e+001	6.754381e+001
	-3.642010e+001	-1.465604e+002	-2.248406e+001	1.358097e+002	-7.155658e+001	5.376731e+001
	-7.333521e+001	6.752625e+001	-7.169531e+001	4.695088e+001	-2.219281e+001	-1.401588e+002
3580000000	-1.906826e+001	1.539477e+002	-3.634788e+001	-1.469768e+002	-7.301264e+001	6.652603e+001
	-3.640546e+001	-1.469872e+002	-2.244408e+001	1.352502e+002	-7.164802e+001	5.208499e+001
	-7.332402e+001	6.648972e+001	-7.181300e+001	4.535352e+001	-2.218056e+001	-1.404602e+002
3585000000	-1.902337e+001	1.533858e+002	-3.633649e+001	-1.473958e+002	-7.300143e+001	6.640412e+001
	-3.639015e+001	-1.474163e+002	-2.240007e+001	1.346864e+002	-7.179717e+001	5.047358e+001
	-7.319095e+001	6.597231e+001	-7.205930e+001	4.364823e+001	-2.217717e+001	-1.407602e+002
3590000000	-1.897033e+001	1.528384e+002	-3.632407e+001	-1.478147e+002	-7.301193e+001	6.610039e+001
	-3.637637e+001	-1.478213e+002	-2.235431e+001	1.341348e+002	-7.195119e+001	4.871557e+001
	-7.318532e+001	6.620372e+001	-7.225876e+001	4.238986e+001	-2.216662e+001	-1.410803e+002
3595000000	-1.891700e+001	1.523314e+002	-3.631373e+001	-1.482299e+002	-7.291601e+001	6.599777e+001
	-3.636377e+001	-1.482435e+002	-2.230513e+001	1.335991e+002	-7.211649e+001	4.706853e+001
	-7.317428e+001	6.666443e+001	-7.240208e+001	4.146241e+001	-2.215887e+001	-1.414135e+002
3600000000	-1.885676e+001	1.518485e+002	-3.630330e+001	-1.486276e+002	-7.293609e+001	6.642666e+001
	-3.635311e+001	-1.486716e+002	-2.225374e+001	1.330821e+002	-7.231884e+001	4.564772e+001
	-7.302603e+001	6.587125e+001	-7.241532e+001	3.970968e+001	-2.214939e+001	-1.417295e+002
3605000000	-1.880132e+001	1.514207e+002	-3.629383e+001	-1.490319e+002	-7.288600e+001	6.533045e+001
	-3.634259e+001	-1.490746e+002	-2.219854e+001	1.325641e+002	-7.251856e+001	4.376085e+001
	-7.282967e+001	6.547091e+001	-7.252417e+001	3.910501e+001	-2.213803e+001	-1.420571e+002
3610000000	-1.873896e+001	1.510010e+002	-3.628203e+001	-1.494434e+002	-7.285046e+001	6.590870e+001
	-3.633146e+001	-1.495073e+002	-2.214335e+001	1.320427e+002	-7.261642e+001	4.154885e+001
	-7.285145e+001	6.477577e+001	-7.272510e+001	3.710627e+001	-2.213057e+001	-1.423793e+002
3615000000	-1.868407e+001	1.506164e+002	-3.627192e+001	-1.498695e+002	-7.261720e+001	6.605614e+001
	-3.632101e+001	-1.499320e+002	-2.208648e+001	1.315212e+002	-7.283519e+001	4.025523e+001
	-7.262271e+001	6.515215e+001	-7.284966e+001	3.573456e+001	-2.212499e+001	-1.427049e+002
3620000000	-1.862458e+001	1.502535e+002	-3.626079e+001	-1.502885e+002	-7.265114e+001	6.621377e+001
	-3.631200e+001	-1.503697e+002	-2.202761e+001	1.310382e+002	-7.306291e+001	3.878174e+001
	-7.258389e+001	6.481906e+001	-7.309219e+001	3.412192e+001	-2.211915e+001	-1.430406e+002
3625000000	-1.856848e+001	1.499309e+002	-3.624963e+001	-1.507297e+002	-7.259229e+001	6.628314e+001
	-3.630259e+001	-1.508105e+002	-2.197002e+001	1.305586e+002	-7.332075e+001	3.682246e+001
	-7.249596e+001	6.375937e+001	-7.326587e+001	3.203446e+001	-2.211331e+001	-1.433748e+002
3630000000	-1.851412e+001	1.496453e+002	-3.623656e+001	-1.511913e+002	-7.238161e+001	6.691715e+001
	-3.629373e+001	-1.512716e+002	-2.190903e+001	1.300955e+002	-7.356051e+001	3.448427e+001
	-7.244444e+001	6.398801e+001	-7.350821e+001	2.897876e+001	-2.210732e+001	-1.437299e+002
3635000000	-1.846325e+001	1.493796e+002	-3.622424e+001	-1.516481e+002	-7.217465e+001	6.708508e+001
	-3.628403e+001	-1.517320e+002	-2.184859e+001	1.296511e+002	-7.389278e+001	3.210162e+001
	-7.221756e+001	6.350340e+001	-7.382332e+001	2.681036e+001	-2.210178e+001	-1.440977e+002
3640000000	-1.841487e+001	1.491276e+002	-3.621732e+001	-1.521107e+002	-7.192113e+001	6.698170e+001
	-3.627663e+001	-1.521955e+002	-2.178716e+001	1.292474e+002	-7.439023e+001	2.929467e+001
	-7.201066e+001	6.353354e+001	-7.423695e+001	2.435341e+001	-2.209623e+001	-1.444374e+002
3645000000	-1.836992e+001	1.488963e+002	-3.621107e+001	-1.525970e+002	-7.170087e+001	6.733411e+001
	-3.627236e+001	-1.526973e+002	-2.172516e+001	1.288476e+002	-7.492172e+001	2.710914e+001
	-7.184877e+001	6.361298e+001	-7.471286e+001	2.164843e+001	-2.208115e+001	-1.448170e+002
3650000000	-1.832713e+001	1.486921e+002	-3.620633e+001	-1.530809e+002	-7.141630e+001	6.690625e+001
	-3.626872e+001	-1.531791e+002	-2.166474e+001	1.284836e+002	-7.561272e+001	2.435619e+001
	-7.180357e+001	6.330988e+001	-7.527973e+001	1.910093e+001	-2.206542e+001	-1.452224e+002
3655000000	-1.828986e+001	1.484972e+002	-3.620658e+001	-1.535771e+002	-7.106657e+001	6.670170e+001
	-3.626837e+001	-1.536907e+002	-2.160355e+001	1.281419e+002	-7.641414e+001	2.285520e+001
	-7.154176e+001	6.371276e+001	-7.620352e+001	1.555959e+001	-2.204794e+001	-1.456193e+002
3660000000	-1.825846e+001	1.483108e+002	-3.621054e+001	-1.540900e+002	-7.055231e+001	6.649332e+001
	-3.627069e+001	-1.542145e+002	-2.154498e+001	1.278154e+002	-7.749754e+001	1.975906e+001
	-7.126108e+001	6.376845e+001	-7.726701e+001	1.291934e+001	-2.204033e+001	-1.465081e+002
3665000000	-1.823087e+001	1.481276e+002	-3.622191e+001	-1.546287e+002	-7.013291e+001	6.532993e+001
	-3.627485e+001	-1.547672e+002	-2.148960e+001	1.274977e+002	-7.867495e+001	1.631579e+001
	-7.076381e+001	6.388108e+001	-7.838283e+001	1.128486e+001	-2.198534e+001	-1.471636e+002
3670000000	-1.820859e+001	1.479426e+002	-3.623820e+001	-1.551956e+002	-6.963165e+001	6.396696e+001
	-3.628693e+001	-1.553450e+002	-2.143517e+001	1.271976e+002	-8.004140e+001	1.412116e+001
	-7.029241e+001	6.262062e+001	-8.012142e+001	6.769289e+000	-2.197551e+001	-1.475803e+002
3675000000	-1.819076e+001	1.477565e+002	-3.626539e+001	-1.557500e+002	-6.915418e+001	6.172867e+001
	-3.630521e+001	-1.559378e+002	-2.138263e+001	1.269255e+002	-8.283949e+001	1.094781e+001
	-6.979365e+001	6.122840e+001	-8.305126e+001	1.876442e+000	-2.196125e+001	-1.480091e+002
3680000000	-1.817654e+001	1.475748e+002	-3.630572e+001	-1.562865e+002	-6.865021e+001	5.877263e+001
	-3.633178e+001	-1.565628e+002	-2.132957e+001	1.266751e+002	-8.679902e+001	1.356887e+001
	-6.923832e+001	5.901069e+001	-8.807190e+001	-2.079256e+000	-2.194322e+001	-1.484356e+002
3685000000	-1.816756e+001	1.473744e+002	-3.636421e+001	-1.567876e+002	-6.810285e+001	5.463307e+001
	-3.637545e+001	-1.571888e+002	-2.128003e+001	1.264573e+002	-9.720590e+001	5.358340e+001
	-6.864476e+001	5.608179e+001	-1.054861e+002	9.139697e+000	-2.192688e+001	-1.488624e+002
3690000000	-1.815825e+001	1.471811e+002	-3.644409e+001	-1.572094e+002	-6.761202e+001	5.001642e+001
	-3.643559e+001	-1.578084e+002	-2.122326e+001	1.262370e+002	-8.876557e+001	1.518149e+002
	-6.813307e+001	5.207329e+001	-8.835209e+001	1.609140e+002	-2.190959e+001	-1.492904e+002
3695000000	-1.814814e+001	1.469950e+002	-3.654838e+001	-1.575189e+002	-6.728982e+001	4.434291e+001
	-3.652311e+001	-1.583719e+002	-2.116621e+001	1.260433e+002	-8.165679e+001	1.524503e+002
	-6.768803e+001	4.707949e+001	-8.079888e+001	1.541918e+002	-2.189110e+001	-1.497286e+002
3700000000	-1.813544e+001	1.467907e+002	-3.666169e+001	-1.576624e+002	-6.712953e+001	3.774633e+001
	-3.663197e+001	-1.587673e+002	-2.110251e+001	1.258412e+002	-7.742014e+001	1.438960e+002
	-6.726439e+001	4.102084e+001	-7.669939e+001	1.436024e+002	-2.187004e+001	-1.501657e+002
3705000000	-1.812108e+001	1.465661e+002	-3.677011e+001	-1.575406e+002	-6.712903e+001	3.007074e+001
	-3.676386e+001	-1.588829e+002	-2.103527e+001	1.256029e+002	-7.459043e+001	1.337445e+002
	-6.707704e+001	3.417438e+001	-7.392001e+001	1.331643e+002	-2.185075e+001	-1.505977e+002
3710000000	-1.810393e+001	1.462997e+002	-3.685697e+001	-1.571457e+002	-6.735354e+001	2.294789e+001
	-3.689126e+001	-1.586495e+002	-2.096519e+001	1.253112e+002	-7.247737e+001	1.240047e+002
	-6.712461e+001	2.610164e+001	-7.190271e+001	1.226531e+002	-2.183673e+001	-1.510341e+002
3715000000	-1.808386e+001	1.459795e+002	-3.689942e+001	-1.565587e+002	-6.783708e+001	1.560509e+001
	-3.698545e+001	-1.580296e+002	-2.089959e+001	1.249464e+002	-7.095007e+001	1.136456e+002
	-6.749473e+001	1.793771e+001	-7.053427e+001	1.116614e+002	-2.181571e+001	-1.514501e+002
3720000000	-1.806432e+001	1.455788e+002	-3.688774e+001	-1.559304e+002	-6.867480e+001	9.076565e+000
	-3.701115e+001	-1.572062e+002	-2.083733e+001	1.245077e+002	-7.001548e+001	1.037027e+002
	-6.817027e+001	1.046212e+001	-6.963305e+001	1.012944e+002	-2.180120e+001	-1.518399e+002
3725000000	-1.804628e+001	1.451391e+002	-3.683204e+001	-1.554457e+002	-6.971408e+001	4.180788e+000
	-3.696867e+001	-1.564765e+002	-2.078528e+001	1.240254e+002	-6.942147e+001	9.379229e+001
	-6.908126e+001	4.589397e+000	-6.924356e+001	9.226601e+001	-2.178119e+001	-1.522345e+002
3730000000	-1.803228e+001	1.446449e+002	-3.674799e+001	-1.552070e+002	-7.090575e+001	9.168804e-002
	-3.688022e+001	-1.560288e+002	-2.074196e+001	1.235218e+002	-6.923617e+001	8.617867e+001
	-7.026451e+001	3.118317e-001	-6.902688e+001	8.398216e+001	-2.176244e+001	-1.526480e+002
3735000000	-1.802156e+001	1.441280e+002	-3.665886e+001	-1.551749e+002	-7.212341e+001	-7.203580e-001
	-3.677841e+001	-1.558725e+002	-2.070545e+001	1.230224e+002	-6.915730e+001	7.932072e+001
	-7.149197e+001	-1.850386e+000	-6.897706e+001	7.762503e+001	-2.174442e+001	-1.530555e+002
3740000000	-1.801096e+001	1.436113e+002	-3.657446e+001	-1.553398e+002	-7.321992e+001	-2.588674e-001
	-3.668224e+001	-1.559444e+002	-2.067330e+001	1.225324e+002	-6.915271e+001	7.376712e+001
	-7.268716e+001	-1.928233e+000	-6.905515e+001	7.193230e+001	-2.172326e+001	-1.534608e+002
3745000000	-1.800265e+001	1.431079e+002	-3.649795e+001	-1.555874e+002	-7.439905e+001	1.979553e+000
	-3.659597e+001	-1.561773e+002	-2.064835e+001	1.220370e+002	-6.924220e+001	6.895175e+001
	-7.359788e+001	-6.125116e-002	-6.922605e+001	6.765057e+001	-2.170218e+001	-1.538836e+002
3750000000	-1.799768e+001	1.425074e+002	-3.643282e+001	-1.559203e+002	-7.515986e+001	5.679534e+000
	-3.652488e+001	-1.564910e+002	-2.061733e+001	1.215694e+002	-6.941556e+001	6.515750e+001
	-7.456453e+001	2.863882e+000	-6.937621e+001	6.377939e+001	-2.167547e+001	-1.542793e+002
3755000000	-1.798382e+001	1.419440e+002	-3.637890e+001	-1.562903e+002	-7.594685e+001	9.931650e+000
	-3.646468e+001	-1.568647e+002	-2.059050e+001	1.210894e+002	-6.946938e+001	6.142185e+001
	-7.528715e+001	7.184255e+000	-6.951974e+001	6.069922e+001	-2.164950e+001	-1.546681e+002
3760000000	-1.796165e+001	1.413947e+002	-3.633062e+001	-1.566940e+002	-7.623832e+001	1.428573e+001
	-3.641260e+001	-1.572791e+002	-2.056107e+001	1.206034e+002	-6.966856e+001	5.829690e+001
	-7.570331e+001	1.217932e+001	-6.970792e+001	5.784010e+001	-2.162454e+001	-1.550652e+002
3765000000	-1.794188e+001	1.408627e+002	-3.628922e+001	-1.571187e+002	-7.668691e+001	1.815178e+001
	-3.636781e+001	-1.576964e+002	-2.052735e+001	1.201212e+002	-6.978764e+001	5.530561e+001
	-7.593352e+001	1.650908e+001	-6.985296e+001	5.524271e+001	-2.160011e+001	-1.554359e+002
3770000000	-1.791343e+001	1.403192e+002	-3.625483e+001	-1.575424e+002	-7.679775e+001	2.267401e+001
	-3.633023e+001	-1.581410e+002	-2.049425e+001	1.196448e+002	-6.996647e+001	5.300909e+001
	-7.613088e+001	1.984320e+001	-6.997933e+001	5.373572e+001	-2.157808e+001	-1.558071e+002
3775000000	-1.788642e+001	1.397887e+002	-3.622326e+001	-1.579766e+002	-7.668713e+001	2.596033e+001
	-3.629767e+001	-1.585678e+002	-2.046128e+001	1.191647e+002	-7.006116e+001	5.069033e+001
	-7.602406e+001	2.304019e+001	-7.011587e+001	5.119287e+001	-2.155502e+001	-1.561639e+002
3780000000	-1.785380e+001	1.392591e+002	-3.619594e+001	-1.584037e+002	-7.659388e+001	2.811084e+001
	-3.626929e+001	-1.590190e+002	-2.042560e+001	1.186792e+002	-7.019114e+001	4.928188e+001
	-7.610057e+001	2.571865e+001	-7.030880e+001	4.935137e+001	-2.153540e+001	-1.565170e+002
3785000000	-1.781758e+001	1.387492e+002	-3.617010e+001	-1.588388e+002	-7.662656e+001	3.129902e+001
	-3.624289e+001	-1.594431e+002	-2.038859e+001	1.182032e+002	-7.036671e+001	4.671037e+001
	-7.610503e+001	2.733217e+001	-7.050758e+001	4.731447e+001	-2.151396e+001	-1.568706e+002
3790000000	-1.777872e+001	1.382373e+002	-3.614854e+001	-1.592610e+002	-7.649483e+001	3.302424e+001
	-3.622072e+001	-1.598896e+002	-2.035052e+001	1.177197e+002	-7.054331e+001	4.507611e+001
	-7.603888e+001	2.885611e+001	-7.064669e+001	4.687448e+001	-2.149497e+001	-1.572052e+002
3795000000	-1.773473e+001	1.377571e+002	-3.612632e+001	-1.596826e+002	-7.653638e+001	3.502322e+001
	-3.620078e+001	-1.603167e+002	-2.030955e+001	1.173236e+002	-7.076291e+001	4.343553e+001
	-7.612901e+001	3.202426e+001	-7.072080e+001	4.585050e+001	-2.147449e+001	-1.575485e+002
3800000000	-1.768813e+001	1.372944e+002	-3.610612e+001	-1.600999e+002	-7.636376e+001	3.814549e+001
	-3.618115e+001	-1.607253e+002	-2.026514e+001	1.168268e+002	-7.096665e+001	4.299250e+001
	-7.603009e+001	3.402357e+001	-7.088477e+001	4.466760e+001	-2.145821e+001	-1.579087e+002
3805000000	-1.763935e+001	1.368541e+002	-3.608953e+001	-1.605097e+002	-7.615037e+001	4.069650e+001
	-3.616528e+001	-1.611542e+002	-2.022504e+001	1.163972e+002	-7.105391e+001	4.159848e+001
	-7.582217e+001	3.642124e+001	-7.103973e+001	4.408013e+001	-2.144188e+001	-1.582597e+002
3810000000	-1.759012e+001	1.364297e+002	-3.607446e+001	-1.609281e+002	-7.608874e+001	4.219470e+001
	-3.615073e+001	-1.615691e+002	-2.017594e+001	1.159154e+002	-7.123652e+001	4.120318e+001
	-7.556852e+001	3.843195e+001	-7.113585e+001	4.393160e+001	-2.142656e+001	-1.586023e+002
3815000000	-1.754138e+001	1.360258e+002	-3.605905e+001	-1.613574e+002	-7.572120e+001	4.379442e+001
	-3.613994e+001	-1.619889e+002	-2.013494e+001	1.154723e+002	-7.133705e+001	4.078403e+001
	-7.534907e+001	4.038325e+001	-7.114882e+001	4.396856e+001	-2.141417e+001	-1.589293e+002
3820000000	-1.749292e+001	1.356508e+002	-3.604627e+001	-1.617789e+002	-7.528757e+001	4.472372e+001
	-3.612700e+001	-1.624074e+002	-2.008399e+001	1.150074e+002	-7.138875e+001	3.981958e+001
	-7.505078e+001	4.164228e+001	-7.108715e+001	4.297943e+001	-2.140311e+001	-1.592592e+002
3825000000	-1.744618e+001	1.352903e+002	-3.603427e+001	-1.621890e+002	-7.507107e+001	4.581636e+001
	-3.611480e+001	-1.628001e+002	-2.004104e+001	1.145864e+002	-7.136470e+001	3.934380e+001
	-7.479718e+001	4.215664e+001	-7.110010e+001	4.250433e+001	-2.139255e+001	-1.595816e+002
3830000000	-1.739727e+001	1.349638e+002	-3.602360e+001	-1.626045e+002	-7.467475e+001	4.659638e+001
	-3.610242e+001	-1.632058e+002	-1.999014e+001	1.141684e+002	-7.137838e+001	3.887503e+001
	-7.443011e+001	4.311661e+001	-7.103788e+001	4.137773e+001	-2.138124e+001	-1.599030e+002
3835000000	-1.735027e+001	1.346496e+002	-3.601396e+001	-1.630118e+002	-7.434647e+001	4.645289e+001
	-3.609083e+001	-1.635919e+002	-1.994593e+001	1.137495e+002	-7.136054e+001	3.788534e+001
	-7.405975e+001	4.272074e+001	-7.093228e+001	4.068923e+001	-2.137240e+001	-1.602263e+002
3840000000	-1.730434e+001	1.343608e+002	-3.600441e+001	-1.634069e+002	-7.410452e+001	4.716455e+001
	-3.608046e+001	-1.639876e+002	-1.989060e+001	1.133509e+002	-7.131686e+001	3.716959e+001
	-7.379435e+001	4.265886e+001	-7.085607e+001	3.913321e+001	-2.136265e+001	-1.605566e+002
3845000000	-1.726001e+001	1.340854e+002	-3.599255e+001	-1.638070e+002	-7.371339e+001	4.558150e+001
	-3.606804e+001	-1.643690e+002	-1.983947e+001	1.129628e+002	-7.131673e+001	3.614342e+001
	-7.342184e+001	4.136567e+001	-7.085432e+001	3.755317e+001	-2.135499e+001	-1.608861e+002
3850000000	-1.721767e+001	1.338236e+002	-3.598253e+001	-1.641955e+002	-7.356776e+001	4.594915e+001
