!Agilent Technologies,E5071B,MY42403545,A.09.10
!Date: Thu Jul 11 06:59:01 2019
!Data & Calibration Information:
!Freq	S11:SOLT3(ON)	S12:SOLT3(ON)	S13:SOLT3(ON)
!	S21:SOLT3(ON)	S22:SOLT3(ON)	S23:SOLT3(ON)
!	S31:SOLT3(ON)	S32:SOLT3(ON)	S33:SOLT3(ON)
# Hz S dB R 50
3500000000	-5.410533e-001	9.942790e+001	-4.598429e+001	-1.645326e+002	-5.745740e+001	1.758728e+002
	-4.579670e+001	-1.699456e+002	-4.291070e-001	1.045954e+002	-5.655158e+001	-1.766558e+002
	-5.765964e+001	1.745427e+002	-5.653208e+001	-1.763086e+002	-2.455909e-001	1.546830e+002
3505000000	-5.484995e-001	9.907522e+001	-4.577743e+001	-1.705893e+002	-5.746586e+001	1.755801e+002
	-4.551788e+001	-1.756563e+002	-4.340140e-001	1.042568e+002	-5.650305e+001	-1.771583e+002
	-5.769276e+001	1.742010e+002	-5.650319e+001	-1.768388e+002	-2.452203e-001	1.544233e+002
3510000000	-5.575474e-001	9.872864e+001	-4.570167e+001	-1.786208e+002	-5.747216e+001	1.751765e+002
	-4.534721e+001	1.766769e+002	-4.408066e-001	1.039333e+002	-5.646621e+001	-1.779240e+002
	-5.772949e+001	1.739913e+002	-5.641827e+001	-1.775184e+002	-2.451780e-001	1.541605e+002
3515000000	-5.681057e-001	9.840393e+001	-4.593393e+001	1.709398e+002	-5.747832e+001	1.750433e+002
	-4.545477e+001	1.666611e+002	-4.482795e-001	1.036261e+002	-5.642080e+001	-1.786762e+002
	-5.778250e+001	1.738558e+002	-5.639322e+001	-1.783525e+002	-2.454229e-001	1.538969e+002
3520000000	-5.770223e-001	9.811209e+001	-4.680252e+001	1.582456e+002	-5.746107e+001	1.748907e+002
	-4.614941e+001	1.545170e+002	-4.537389e-001	1.033458e+002	-5.640127e+001	-1.797258e+002
	-5.776563e+001	1.740139e+002	-5.636024e+001	-1.794049e+002	-2.452722e-001	1.536366e+002
3525000000	-5.798889e-001	9.784862e+001	-4.865354e+001	1.452811e+002	-5.739948e+001	1.746217e+002
	-4.773143e+001	1.422674e+002	-4.547638e-001	1.030850e+002	-5.641885e+001	1.793243e+002
	-5.771146e+001	1.740949e+002	-5.638132e+001	1.795514e+002	-2.453644e-001	1.533762e+002
3530000000	-5.751453e-001	9.757082e+001	-5.169296e+001	1.358561e+002	-5.733033e+001	1.740616e+002
	-5.030144e+001	1.333006e+002	-4.499915e-001	1.028097e+002	-5.645264e+001	1.786031e+002
	-5.760227e+001	1.737817e+002	-5.642514e+001	1.786032e+002	-2.455175e-001	1.531115e+002
3535000000	-5.665650e-001	9.726339e+001	-5.589539e+001	1.350961e+002	-5.727608e+001	1.733972e+002
	-5.367193e+001	1.313902e+002	-4.436039e-001	1.025127e+002	-5.647693e+001	1.779527e+002
	-5.752828e+001	1.732915e+002	-5.646257e+001	1.779092e+002	-2.457674e-001	1.528468e+002
3540000000	-5.578719e-001	9.692691e+001	-6.067325e+001	1.524946e+002	-5.724635e+001	1.725651e+002
	-5.730240e+001	1.408531e+002	-4.376629e-001	1.021950e+002	-5.648728e+001	1.774406e+002
	-5.747585e+001	1.723899e+002	-5.648937e+001	1.772870e+002	-2.456865e-001	1.525843e+002
3545000000	-5.498951e-001	9.658129e+001	-6.222996e+001	-1.685209e+002	-5.724668e+001	1.719680e+002
	-5.969840e+001	1.638183e+002	-4.337667e-001	1.018690e+002	-5.649290e+001	1.768030e+002
	-5.744359e+001	1.718012e+002	-5.651547e+001	1.767198e+002	-2.460922e-001	1.523202e+002
3550000000	-5.436499e-001	9.622711e+001	-5.992706e+001	-1.440252e+002	-5.722417e+001	1.712978e+002
	-5.948447e+001	-1.719601e+002	-4.311900e-001	1.015409e+002	-5.648534e+001	1.763029e+002
	-5.743379e+001	1.710616e+002	-5.653888e+001	1.762165e+002	-2.466238e-001	1.520569e+002
3555000000	-5.370461e-001	9.587540e+001	-5.768223e+001	-1.350079e+002	-5.722767e+001	1.708232e+002
	-5.805464e+001	-1.578223e+002	-4.297518e-001	1.012134e+002	-5.649325e+001	1.756931e+002
	-5.741006e+001	1.704923e+002	-5.654689e+001	1.756999e+002	-2.468849e-001	1.517911e+002
3560000000	-5.323474e-001	9.552264e+001	-5.605016e+001	-1.316359e+002	-5.721500e+001	1.702264e+002
	-5.665564e+001	-1.507715e+002	-4.285398e-001	1.008845e+002	-5.649124e+001	1.750883e+002
	-5.739445e+001	1.699883e+002	-5.655624e+001	1.751558e+002	-2.472675e-001	1.515208e+002
3565000000	-5.259848e-001	9.516429e+001	-5.489426e+001	-1.305990e+002	-5.718941e+001	1.695490e+002
	-5.553814e+001	-1.474878e+002	-4.277414e-001	1.005566e+002	-5.647420e+001	1.744979e+002
	-5.738211e+001	1.693707e+002	-5.656057e+001	1.746030e+002	-2.475516e-001	1.512483e+002
3570000000	-5.206017e-001	9.481019e+001	-5.401405e+001	-1.304756e+002	-5.716823e+001	1.688287e+002
	-5.465712e+001	-1.458838e+002	-4.269733e-001	1.002253e+002	-5.649316e+001	1.737351e+002
	-5.736414e+001	1.687939e+002	-5.657245e+001	1.740311e+002	-2.476375e-001	1.509754e+002
3575000000	-5.151782e-001	9.445987e+001	-5.332502e+001	-1.308119e+002	-5.717229e+001	1.681235e+002
	-5.397170e+001	-1.452183e+002	-4.262535e-001	9.989608e+001	-5.648594e+001	1.730795e+002
	-5.735757e+001	1.681538e+002	-5.655718e+001	1.734357e+002	-2.474439e-001	1.506986e+002
3580000000	-5.107105e-001	9.410850e+001	-5.277890e+001	-1.314648e+002	-5.716989e+001	1.675117e+002
	-5.342709e+001	-1.449965e+002	-4.261219e-001	9.956805e+001	-5.649752e+001	1.724312e+002
	-5.734696e+001	1.675451e+002	-5.656460e+001	1.728730e+002	-2.479243e-001	1.504203e+002
3585000000	-5.050112e-001	9.376158e+001	-5.232652e+001	-1.320608e+002	-5.715770e+001	1.668671e+002
	-5.298020e+001	-1.451350e+002	-4.256300e-001	9.924070e+001	-5.648667e+001	1.719311e+002
	-5.732818e+001	1.670596e+002	-5.655828e+001	1.722140e+002	-2.480170e-001	1.501441e+002
3590000000	-5.004471e-001	9.342033e+001	-5.195512e+001	-1.328462e+002	-5.717646e+001	1.660000e+002
	-5.261590e+001	-1.453295e+002	-4.254093e-001	9.891624e+001	-5.651838e+001	1.709660e+002
	-5.731167e+001	1.665283e+002	-5.656289e+001	1.716448e+002	-2.481743e-001	1.498647e+002
3595000000	-5.467456e-001	9.289569e+001	-5.154951e+001	-1.342122e+002	-5.715262e+001	1.650290e+002
	-5.238220e+001	-1.587260e+002	-4.541875e-001	9.843421e+001	-5.649741e+001	1.693792e+002
	-5.742282e+001	1.651421e+002	-5.667812e+001	1.708066e+002	-2.652986e-001	1.495083e+002
3600000000	-5.431386e-001	9.255987e+001	-5.129236e+001	-1.349566e+002	-5.715471e+001	1.641719e+002
	-5.216651e+001	-1.589444e+002	-4.538231e-001	9.811168e+001	-5.655934e+001	1.688284e+002
	-5.739363e+001	1.646221e+002	-5.665997e+001	1.701960e+002	-2.657502e-001	1.492255e+002
3605000000	-5.405315e-001	9.222440e+001	-5.105785e+001	-1.356611e+002	-5.720846e+001	1.637560e+002
	-5.198732e+001	-1.592945e+002	-4.539878e-001	9.779173e+001	-5.662642e+001	1.686083e+002
	-5.740538e+001	1.639932e+002	-5.667764e+001	1.694322e+002	-2.675265e-001	1.489369e+002
3610000000	-5.383382e-001	9.189208e+001	-5.084597e+001	-1.362885e+002	-5.731403e+001	1.631448e+002
	-5.181727e+001	-1.595976e+002	-4.529748e-001	9.746819e+001	-5.676416e+001	1.681005e+002
	-5.739465e+001	1.634591e+002	-5.668445e+001	1.689751e+002	-2.704882e-001	1.486375e+002
3615000000	-5.358513e-001	9.155422e+001	-5.065455e+001	-1.368973e+002	-5.737303e+001	1.623692e+002
	-5.169003e+001	-1.598375e+002	-4.526060e-001	9.714163e+001	-5.682703e+001	1.676490e+002
	-5.737748e+001	1.628627e+002	-5.668951e+001	1.683440e+002	-2.736710e-001	1.483374e+002
3620000000	-5.352979e-001	9.122082e+001	-5.048337e+001	-1.376002e+002	-5.747793e+001	1.620806e+002
	-5.158085e+001	-1.600303e+002	-4.514932e-001	9.681554e+001	-5.691399e+001	1.673351e+002
	-5.737529e+001	1.623263e+002	-5.669661e+001	1.676561e+002	-2.786903e-001	1.480236e+002
3625000000	-5.349871e-001	9.088465e+001	-5.033393e+001	-1.381935e+002	-5.767785e+001	1.624980e+002
	-5.148876e+001	-1.601767e+002	-4.509072e-001	9.648592e+001	-5.696148e+001	1.676006e+002
	-5.731473e+001	1.615909e+002	-5.670075e+001	1.671618e+002	-2.822292e-001	1.477279e+002
3630000000	-5.359841e-001	9.054845e+001	-5.017841e+001	-1.388468e+002	-5.783606e+001	1.637768e+002
	-5.140861e+001	-1.602202e+002	-4.498447e-001	9.615927e+001	-5.699536e+001	1.678448e+002
	-5.729516e+001	1.609121e+002	-5.669727e+001	1.664760e+002	-2.844045e-001	1.474388e+002
3635000000	-5.366131e-001	9.021687e+001	-5.003162e+001	-1.394053e+002	-5.781995e+001	1.646986e+002
	-5.132101e+001	-1.601960e+002	-4.489970e-001	9.583129e+001	-5.700890e+001	1.679556e+002
	-5.726544e+001	1.602977e+002	-5.668358e+001	1.659291e+002	-2.864553e-001	1.471527e+002
3640000000	-5.380946e-001	8.988599e+001	-4.989830e+001	-1.400284e+002	-5.775166e+001	1.649632e+002
	-5.121692e+001	-1.601342e+002	-4.481323e-001	9.550427e+001	-5.702834e+001	1.679380e+002
	-5.725430e+001	1.597093e+002	-5.669604e+001	1.652919e+002	-2.876951e-001	1.468712e+002
3645000000	-5.399742e-001	8.955739e+001	-4.974760e+001	-1.406667e+002	-5.769639e+001	1.646397e+002
	-5.111769e+001	-1.600276e+002	-4.473312e-001	9.518313e+001	-5.702668e+001	1.674574e+002
	-5.723640e+001	1.590704e+002	-5.668942e+001	1.646766e+002	-2.885394e-001	1.465949e+002
3650000000	-5.429396e-001	8.923061e+001	-4.961689e+001	-1.413030e+002	-5.765655e+001	1.640156e+002
	-5.097963e+001	-1.599212e+002	-4.471290e-001	9.485695e+001	-5.704668e+001	1.667986e+002
	-5.725058e+001	1.583670e+002	-5.669252e+001	1.639960e+002	-2.889370e-001	1.463186e+002
3655000000	-5.461038e-001	8.890360e+001	-4.948329e+001	-1.419239e+002	-5.763665e+001	1.633171e+002
	-5.082433e+001	-1.599598e+002	-4.464125e-001	9.453098e+001	-5.707815e+001	1.661530e+002
	-5.729986e+001	1.578374e+002	-5.672366e+001	1.633542e+002	-2.891402e-001	1.460473e+002
3660000000	-5.495437e-001	8.857388e+001	-4.934854e+001	-1.426257e+002	-5.762961e+001	1.625866e+002
	-5.066320e+001	-1.600794e+002	-4.455677e-001	9.420669e+001	-5.712536e+001	1.656107e+002
	-5.732483e+001	1.572058e+002	-5.675231e+001	1.626923e+002	-2.888202e-001	1.457771e+002
3665000000	-5.528198e-001	8.824230e+001	-4.922248e+001	-1.434761e+002	-5.762902e+001	1.619208e+002
	-5.048787e+001	-1.602825e+002	-4.446463e-001	9.387982e+001	-5.719890e+001	1.647813e+002
	-5.734643e+001	1.566305e+002	-5.676887e+001	1.621214e+002	-2.887168e-001	1.455028e+002
3670000000	-5.569011e-001	8.791005e+001	-4.910628e+001	-1.443295e+002	-5.764421e+001	1.614102e+002
	-5.032634e+001	-1.605503e+002	-4.437408e-001	9.354919e+001	-5.729748e+001	1.638420e+002
	-5.731916e+001	1.560064e+002	-5.680483e+001	1.615703e+002	-2.878747e-001	1.452364e+002
3675000000	-5.611873e-001	8.757189e+001	-4.898969e+001	-1.452416e+002	-5.768285e+001	1.610333e+002
	-5.015324e+001	-1.609496e+002	-4.431204e-001	9.321949e+001	-5.733994e+001	1.625734e+002
	-5.735711e+001	1.556540e+002	-5.684200e+001	1.610280e+002	-2.857870e-001	1.449679e+002
3680000000	-5.651802e-001	8.723339e+001	-4.886941e+001	-1.461677e+002	-5.771220e+001	1.605050e+002
	-4.997138e+001	-1.614052e+002	-4.428029e-001	9.289263e+001	-5.730115e+001	1.611623e+002
	-5.736921e+001	1.550905e+002	-5.686838e+001	1.606433e+002	-2.830202e-001	1.447134e+002
3685000000	-5.684233e-001	8.689080e+001	-4.875079e+001	-1.471563e+002	-5.776225e+001	1.598766e+002
	-4.978498e+001	-1.620246e+002	-4.428561e-001	9.256319e+001	-5.726128e+001	1.603535e+002
	-5.739067e+001	1.546007e+002	-5.689280e+001	1.602184e+002	-2.814866e-001	1.444550e+002
3690000000	-5.720684e-001	8.655297e+001	-4.863228e+001	-1.481827e+002	-5.778068e+001	1.593929e+002
	-4.958857e+001	-1.627832e+002	-4.420851e-001	9.223552e+001	-5.722291e+001	1.597228e+002
	-5.739817e+001	1.542145e+002	-5.692709e+001	1.597789e+002	-2.806563e-001	1.441995e+002
3695000000	-5.755043e-001	8.621212e+001	-4.851869e+001	-1.492352e+002	-5.780567e+001	1.587963e+002
	-4.940768e+001	-1.637216e+002	-4.429067e-001	9.191161e+001	-5.716212e+001	1.592192e+002
	-5.741256e+001	1.537851e+002	-5.694708e+001	1.594709e+002	-2.794446e-001	1.439422e+002
3700000000	-5.784839e-001	8.587535e+001	-4.839512e+001	-1.503627e+002	-5.783514e+001	1.581291e+002
	-4.921767e+001	-1.647078e+002	-4.432145e-001	9.158734e+001	-5.711522e+001	1.590296e+002
	-5.740250e+001	1.534334e+002	-5.697377e+001	1.591811e+002	-2.783353e-001	1.436863e+002
3705000000	-5.819633e-001	8.553227e+001	-4.828247e+001	-1.515228e+002	-5.782012e+001	1.575852e+002
	-4.903027e+001	-1.657935e+002	-4.435182e-001	9.126558e+001	-5.709011e+001	1.588006e+002
	-5.741011e+001	1.529638e+002	-5.698450e+001	1.588995e+002	-2.769989e-001	1.434342e+002
3710000000	-5.841805e-001	8.518773e+001	-4.815875e+001	-1.527854e+002	-5.780624e+001	1.570812e+002
	-4.883101e+001	-1.670320e+002	-4.441050e-001	9.093996e+001	-5.702424e+001	1.586975e+002
	-5.742549e+001	1.527053e+002	-5.699029e+001	1.587382e+002	-2.750676e-001	1.431834e+002
3715000000	-5.860995e-001	8.483913e+001	-4.802475e+001	-1.541912e+002	-5.776086e+001	1.565864e+002
	-4.862970e+001	-1.683912e+002	-4.447779e-001	9.061585e+001	-5.698359e+001	1.586620e+002
	-5.741012e+001	1.524322e+002	-5.699672e+001	1.585754e+002	-2.738213e-001	1.429299e+002
3720000000	-5.879271e-001	8.448841e+001	-4.789028e+001	-1.557043e+002	-5.772850e+001	1.561745e+002
	-4.843461e+001	-1.699402e+002	-4.459082e-001	9.028798e+001	-5.692026e+001	1.585373e+002
	-5.738881e+001	1.521208e+002	-5.694978e+001	1.583727e+002	-2.731265e-001	1.426750e+002
3725000000	-5.895615e-001	8.413506e+001	-4.774748e+001	-1.574265e+002	-5.766962e+001	1.557438e+002
	-4.822935e+001	-1.715722e+002	-4.473050e-001	8.996020e+001	-5.687014e+001	1.582559e+002
	-5.735237e+001	1.518242e+002	-5.692246e+001	1.581838e+002	-2.724288e-001	1.424154e+002
3730000000	-5.902538e-001	8.378417e+001	-4.758837e+001	-1.592906e+002	-5.759775e+001	1.553172e+002
	-4.801872e+001	-1.734177e+002	-4.489644e-001	8.963235e+001	-5.681449e+001	1.580870e+002
	-5.731265e+001	1.513686e+002	-5.689424e+001	1.578115e+002	-2.719934e-001	1.421523e+002
3735000000	-5.904860e-001	8.342725e+001	-4.743049e+001	-1.615341e+002	-5.754693e+001	1.546874e+002
	-4.778448e+001	-1.755382e+002	-4.512929e-001	8.930414e+001	-5.674252e+001	1.577645e+002
	-5.726111e+001	1.509472e+002	-5.685194e+001	1.573977e+002	-2.715692e-001	1.418939e+002
3740000000	-5.908653e-001	8.307354e+001	-4.725489e+001	-1.640356e+002	-5.749301e+001	1.539298e+002
	-4.754065e+001	-1.780387e+002	-4.537042e-001	8.897522e+001	-5.667834e+001	1.572635e+002
	-5.722936e+001	1.504111e+002	-5.681681e+001	1.569965e+002	-2.714001e-001	1.416327e+002
3745000000	-5.908440e-001	8.272043e+001	-4.707611e+001	-1.670729e+002	-5.744048e+001	1.531345e+002
	-4.728104e+001	1.791014e+002	-4.562648e-001	8.864434e+001	-5.661006e+001	1.570240e+002
	-5.718549e+001	1.498437e+002	-5.679160e+001	1.565430e+002	-2.708137e-001	1.413746e+002
3750000000	-5.903174e-001	8.237010e+001	-4.689107e+001	-1.706571e+002	-5.738768e+001	1.523620e+002
	-4.699475e+001	1.756869e+002	-4.595486e-001	8.832018e+001	-5.655343e+001	1.565605e+002
	-5.714967e+001	1.491429e+002	-5.676321e+001	1.562035e+002	-2.706021e-001	1.411141e+002
3755000000	-5.903816e-001	8.201891e+001	-4.671978e+001	-1.750925e+002	-5.736274e+001	1.515745e+002
	-4.670278e+001	1.714749e+002	-4.629498e-001	8.799614e+001	-5.651135e+001	1.559602e+002
	-5.713806e+001	1.483749e+002	-5.672429e+001	1.556771e+002	-2.703516e-001	1.408546e+002
3760000000	-5.911086e-001	8.167012e+001	-4.658791e+001	1.793987e+002	-5.734604e+001	1.508212e+002
	-4.641259e+001	1.662863e+002	-4.680279e-001	8.767302e+001	-5.649634e+001	1.555555e+002
	-5.712584e+001	1.476945e+002	-5.671757e+001	1.552027e+002	-2.708095e-001	1.405929e+002
3765000000	-5.925392e-001	8.132558e+001	-4.653735e+001	1.724739e+002	-5.736988e+001	1.500002e+002
	-4.615863e+001	1.597565e+002	-4.739454e-001	8.735257e+001	-5.645836e+001	1.551848e+002
	-5.714966e+001	1.467837e+002	-5.670312e+001	1.548614e+002	-2.708298e-001	1.403268e+002
3770000000	-5.960239e-001	8.098696e+001	-4.665954e+001	1.637888e+002	-5.738727e+001	1.494561e+002
	-4.601545e+001	1.514383e+002	-4.802953e-001	8.704349e+001	-5.641006e+001	1.548125e+002
	-5.721136e+001	1.462180e+002	-5.667409e+001	1.545314e+002	-2.708937e-001	1.400644e+002
3775000000	-6.003237e-001	8.067302e+001	-4.711161e+001	1.530347e+002	-5.743278e+001	1.488912e+002
	-4.611213e+001	1.411354e+002	-4.870699e-001	8.674754e+001	-5.635051e+001	1.543116e+002
	-5.728375e+001	1.458320e+002	-5.661908e+001	1.543463e+002	-2.715218e-001	1.397987e+002
3780000000	-6.040084e-001	8.038057e+001	-4.809885e+001	1.403853e+002	-5.746441e+001	1.486423e+002
	-4.662820e+001	1.288807e+002	-4.918972e-001	8.647496e+001	-5.628191e+001	1.536338e+002
	-5.731022e+001	1.457601e+002	-5.653726e+001	1.537682e+002	-2.718696e-001	1.395294e+002
3785000000	-6.032801e-001	8.011469e+001	-4.991858e+001	1.267440e+002	-5.750181e+001	1.485864e+002
	-4.775853e+001	1.155587e+002	-4.935982e-001	8.621331e+001	-5.623094e+001	1.527879e+002
	-5.731499e+001	1.457759e+002	-5.646516e+001	1.530444e+002	-2.725041e-001	1.392605e+002
3790000000	-5.971645e-001	7.985098e+001	-5.286525e+001	1.135631e+002	-5.749743e+001	1.485103e+002
	-4.964555e+001	1.027798e+002	-4.899717e-001	8.594466e+001	-5.619228e+001	1.520196e+002
	-5.728223e+001	1.459133e+002	-5.643068e+001	1.522755e+002	-2.723193e-001	1.389941e+002
3795000000	-5.872131e-001	7.956752e+001	-5.741256e+001	1.028704e+002	-5.742697e+001	1.481504e+002
	-5.228174e+001	9.224764e+001	-4.846575e-001	8.566001e+001	-5.619323e+001	1.512757e+002
	-5.722169e+001	1.458443e+002	-5.641764e+001	1.515875e+002	-2.726641e-001	1.387241e+002
3800000000	-5.768083e-001	7.926593e+001	-6.533573e+001	9.868693e+001	-5.734889e+001	1.475764e+002
	-5.567809e+001	8.503422e+001	-4.784717e-001	8.535359e+001	-5.620831e+001	1.507326e+002
	-5.710485e+001	1.455902e+002	-5.640844e+001	1.509494e+002	-2.732331e-001	1.384559e+002
3805000000	-5.672199e-001	7.894412e+001	-7.597393e+001	-1.365800e+002	-5.728485e+001	1.469052e+002
	-6.005459e+001	8.265332e+001	-4.734532e-001	8.503791e+001	-5.620768e+001	1.502958e+002
	-5.708861e+001	1.452725e+002	-5.641240e+001	1.504709e+002	-2.731970e-001	1.381858e+002
3810000000	-5.594085e-001	7.861354e+001	-6.371985e+001	-1.142151e+002	-5.721278e+001	1.461539e+002
	-6.620040e+001	9.170210e+001	-4.695641e-001	8.471229e+001	-5.619807e+001	1.498443e+002
	-5.702393e+001	1.447172e+002	-5.638587e+001	1.500037e+002	-2.737734e-001	1.379107e+002
3815000000	-5.536995e-001	7.827352e+001	-5.951620e+001	-1.161598e+002	-5.716794e+001	1.456901e+002
	-7.245175e+001	1.478824e+002	-4.663070e-001	8.438397e+001	-5.618353e+001	1.493978e+002
	-5.697268e+001	1.440617e+002	-5.636054e+001	1.494322e+002	-2.744979e-001	1.376409e+002
3820000000	-5.491952e-001	7.793598e+001	-5.722079e+001	-1.192362e+002	-5.711566e+001	1.451050e+002
	-6.758157e+001	-1.612108e+002	-4.633756e-001	8.405525e+001	-5.615639e+001	1.488628e+002
	-5.693286e+001	1.435216e+002	-5.632358e+001	1.487942e+002	-2.752772e-001	1.373661e+002
3825000000	-5.455186e-001	7.759092e+001	-5.572158e+001	-1.220299e+002	-5.708650e+001	1.445640e+002
	-6.353100e+001	-1.505038e+002	-4.611549e-001	8.372639e+001	-5.614255e+001	1.483827e+002
	-5.687882e+001	1.429172e+002	-5.632377e+001	1.482839e+002	-2.758074e-001	1.370936e+002
3830000000	-5.431246e-001	7.725287e+001	-5.467096e+001	-1.244437e+002	-5.704350e+001	1.439712e+002
	-6.101439e+001	-1.478481e+002	-4.596033e-001	8.339502e+001	-5.610602e+001	1.479330e+002
	-5.685775e+001	1.421458e+002	-5.628976e+001	1.477394e+002	-2.762352e-001	1.368228e+002
3835000000	-5.411697e-001	7.691659e+001	-5.386993e+001	-1.265971e+002	-5.701387e+001	1.434379e+002
	-5.928655e+001	-1.474753e+002	-4.576987e-001	8.307210e+001	-5.608121e+001	1.473412e+002
	-5.683004e+001	1.415564e+002	-5.626517e+001	1.471825e+002	-2.768488e-001	1.365495e+002
3840000000	-5.399414e-001	7.657954e+001	-5.322446e+001	-1.285073e+002	-5.700151e+001	1.428800e+002
	-5.801438e+001	-1.480586e+002	-4.561175e-001	8.274631e+001	-5.606126e+001	1.467350e+002
	-5.675709e+001	1.408588e+002	-5.622157e+001	1.466156e+002	-2.769648e-001	1.362797e+002
3845000000	-5.391437e-001	7.624920e+001	-5.272601e+001	-1.302241e+002	-5.697819e+001	1.422051e+002
	-5.697142e+001	-1.490183e+002	-4.548570e-001	8.242567e+001	-5.604642e+001	1.461740e+002
	-5.671236e+001	1.402866e+002	-5.619555e+001	1.459895e+002	-2.773088e-001	1.360080e+002
3850000000	-5.390735e-001	7.592320e+001	-5.229391e+001	-1.318003e+002	-5.697125e+001	1.413728e+002
	-5.610370e+001	-1.502774e+002	-4.538201e-001	8.210625e+001	-5.601524e+001	1.456501e+002
