!Agilent Technologies,E5071B,MY42403545,A.09.10
!Date: Thu Jul 11 07:19:43 2019
!Data & Calibration Information:
!Freq	S11:SOLT3(ON)	S12:SOLT3(ON)	S13:SOLT3(ON)
!	S21:SOLT3(ON)	S22:SOLT3(ON)	S23:SOLT3(ON)
!	S31:SOLT3(ON)	S32:SOLT3(ON)	S33:SOLT3(ON)
# Hz S dB R 50
3500000000	-1.946599e+001	1.740617e+002	-5.938642e-001	9.457226e+001	-5.714753e+001	1.794889e+002
	-6.022419e-001	9.466311e+001	-1.986124e+001	-1.693406e+002	-5.665363e+001	1.781035e+002
	-5.716199e+001	1.795364e+002	-5.652279e+001	1.783708e+002	-2.448349e-001	1.537956e+002
3505000000	-1.942615e+001	1.739114e+002	-5.956505e-001	9.420864e+001	-5.698372e+001	1.798604e+002
	-6.040790e-001	9.428301e+001	-1.979960e+001	-1.698867e+002	-5.682750e+001	1.773425e+002
	-5.697628e+001	-1.799147e+002	-5.669244e+001	1.772722e+002	-2.447100e-001	1.535293e+002
3510000000	-1.939210e+001	1.738326e+002	-5.973002e-001	9.383894e+001	-5.677999e+001	1.796814e+002
	-6.055477e-001	9.390512e+001	-1.973071e+001	-1.703843e+002	-5.700260e+001	1.768501e+002
	-5.674596e+001	1.798320e+002	-5.688299e+001	1.766736e+002	-2.445507e-001	1.532632e+002
3515000000	-1.935383e+001	1.737717e+002	-5.976261e-001	9.346350e+001	-5.658484e+001	1.789877e+002
	-6.061756e-001	9.352331e+001	-1.965870e+001	-1.708358e+002	-5.714751e+001	1.767615e+002
	-5.655320e+001	1.791782e+002	-5.702898e+001	1.764409e+002	-2.442451e-001	1.529958e+002
3520000000	-1.931409e+001	1.737479e+002	-5.975050e-001	9.307839e+001	-5.645866e+001	1.779623e+002
	-6.064417e-001	9.313409e+001	-1.958218e+001	-1.713012e+002	-5.723377e+001	1.770474e+002
	-5.641211e+001	1.781025e+002	-5.714699e+001	1.766020e+002	-2.441563e-001	1.527321e+002
3525000000	-1.926752e+001	1.737052e+002	-5.975813e-001	9.268535e+001	-5.635907e+001	1.770384e+002
	-6.071902e-001	9.274108e+001	-1.949833e+001	-1.717887e+002	-5.726566e+001	1.771184e+002
	-5.632160e+001	1.770848e+002	-5.719509e+001	1.767268e+002	-2.437254e-001	1.524709e+002
3530000000	-1.922234e+001	1.735840e+002	-5.976993e-001	9.229567e+001	-5.629522e+001	1.760293e+002
	-6.084987e-001	9.234722e+001	-1.941570e+001	-1.722886e+002	-5.726984e+001	1.771900e+002
	-5.626633e+001	1.760474e+002	-5.720676e+001	1.767200e+002	-2.436331e-001	1.522064e+002
3535000000	-1.916270e+001	1.734313e+002	-5.981328e-001	9.190353e+001	-5.623773e+001	1.749833e+002
	-6.093307e-001	9.195437e+001	-1.932834e+001	-1.728178e+002	-5.726277e+001	1.771841e+002
	-5.620251e+001	1.749421e+002	-5.721446e+001	1.766748e+002	-2.437198e-001	1.519433e+002
3540000000	-1.911171e+001	1.732368e+002	-5.987212e-001	9.150981e+001	-5.621510e+001	1.739935e+002
	-6.103009e-001	9.156460e+001	-1.924175e+001	-1.733395e+002	-5.724408e+001	1.770103e+002
	-5.618028e+001	1.739216e+002	-5.719962e+001	1.765156e+002	-2.434577e-001	1.516841e+002
3545000000	-1.904336e+001	1.730038e+002	-5.998418e-001	9.112567e+001	-5.619176e+001	1.730890e+002
	-6.122795e-001	9.118008e+001	-1.915352e+001	-1.738900e+002	-5.720470e+001	1.767891e+002
	-5.616581e+001	1.730397e+002	-5.717864e+001	1.762059e+002	-2.437079e-001	1.514231e+002
3550000000	-1.897660e+001	1.727759e+002	-6.006604e-001	9.074274e+001	-5.615880e+001	1.722663e+002
	-6.134561e-001	9.079954e+001	-1.906550e+001	-1.744054e+002	-5.718036e+001	1.764713e+002
	-5.614137e+001	1.721588e+002	-5.714774e+001	1.758541e+002	-2.442708e-001	1.511649e+002
3555000000	-1.890361e+001	1.725007e+002	-6.014136e-001	9.036179e+001	-5.614751e+001	1.713699e+002
	-6.149200e-001	9.041904e+001	-1.898120e+001	-1.749206e+002	-5.714075e+001	1.761256e+002
	-5.611937e+001	1.712026e+002	-5.714191e+001	1.754353e+002	-2.442838e-001	1.509049e+002
3560000000	-1.883570e+001	1.723472e+002	-6.030180e-001	8.997659e+001	-5.613824e+001	1.704773e+002
	-6.155085e-001	9.003498e+001	-1.889603e+001	-1.754736e+002	-5.710758e+001	1.757482e+002
	-5.613272e+001	1.703360e+002	-5.711617e+001	1.751568e+002	-2.447025e-001	1.506400e+002
3565000000	-1.876496e+001	1.719812e+002	-6.038354e-001	8.958782e+001	-5.613670e+001	1.695257e+002
	-6.167152e-001	8.964929e+001	-1.881318e+001	-1.760380e+002	-5.707777e+001	1.751914e+002
	-5.613656e+001	1.694066e+002	-5.710825e+001	1.745444e+002	-2.450811e-001	1.503742e+002
3570000000	-1.869363e+001	1.715737e+002	-6.050644e-001	8.919441e+001	-5.616047e+001	1.686444e+002
	-6.184636e-001	8.925885e+001	-1.873312e+001	-1.766000e+002	-5.706138e+001	1.746968e+002
	-5.615822e+001	1.685976e+002	-5.708986e+001	1.741292e+002	-2.449073e-001	1.501071e+002
3575000000	-1.862290e+001	1.712501e+002	-6.066624e-001	8.880107e+001	-5.617006e+001	1.679309e+002
	-6.193742e-001	8.886571e+001	-1.865391e+001	-1.771736e+002	-5.705950e+001	1.743950e+002
	-5.617422e+001	1.678524e+002	-5.709402e+001	1.736795e+002	-2.449489e-001	1.498380e+002
3580000000	-1.855308e+001	1.709220e+002	-6.080158e-001	8.840613e+001	-5.618023e+001	1.671958e+002
	-6.197850e-001	8.847342e+001	-1.857876e+001	-1.777555e+002	-5.704507e+001	1.739090e+002
	-5.620301e+001	1.671553e+002	-5.708412e+001	1.733039e+002	-2.453759e-001	1.495678e+002
3585000000	-1.848232e+001	1.705054e+002	-6.096097e-001	8.801203e+001	-5.619492e+001	1.665027e+002
	-6.205298e-001	8.807946e+001	-1.850517e+001	-1.783207e+002	-5.702638e+001	1.734704e+002
	-5.621440e+001	1.664022e+002	-5.705357e+001	1.728517e+002	-2.452934e-001	1.492988e+002
3590000000	-1.840502e+001	1.701220e+002	-6.110927e-001	8.761918e+001	-5.619983e+001	1.658553e+002
	-6.211633e-001	8.768913e+001	-1.843618e+001	-1.788925e+002	-5.698664e+001	1.731657e+002
	-5.622782e+001	1.658340e+002	-5.702189e+001	1.724261e+002	-2.454997e-001	1.490267e+002
3595000000	-1.833701e+001	1.697898e+002	-6.124203e-001	8.723117e+001	-5.621529e+001	1.653060e+002
	-6.216088e-001	8.730004e+001	-1.836494e+001	-1.794512e+002	-5.695520e+001	1.729578e+002
	-5.623928e+001	1.652141e+002	-5.700089e+001	1.721495e+002	-2.459460e-001	1.487549e+002
3600000000	-1.824779e+001	1.693894e+002	-6.137457e-001	8.684687e+001	-5.621159e+001	1.645342e+002
	-6.226522e-001	8.691356e+001	-1.829768e+001	-1.799836e+002	-5.692638e+001	1.724605e+002
	-5.624945e+001	1.646532e+002	-5.695797e+001	1.716849e+002	-2.460881e-001	1.484844e+002
3605000000	-1.816714e+001	1.690711e+002	-6.154531e-001	8.646339e+001	-5.619953e+001	1.639994e+002
	-6.235565e-001	8.652675e+001	-1.823141e+001	1.794701e+002	-5.685319e+001	1.722144e+002
	-5.624660e+001	1.639551e+002	-5.692668e+001	1.712453e+002	-2.462046e-001	1.482145e+002
3610000000	-1.808946e+001	1.687489e+002	-6.171763e-001	8.607323e+001	-5.618392e+001	1.634018e+002
	-6.243124e-001	8.613185e+001	-1.817307e+001	1.789057e+002	-5.679090e+001	1.717073e+002
	-5.622789e+001	1.633163e+002	-5.687405e+001	1.708953e+002	-2.468873e-001	1.479429e+002
3615000000	-1.801093e+001	1.684341e+002	-6.198935e-001	8.567995e+001	-5.617370e+001	1.626639e+002
	-6.261082e-001	8.573153e+001	-1.811414e+001	1.783408e+002	-5.674414e+001	1.710936e+002
	-5.623234e+001	1.626618e+002	-5.682001e+001	1.702978e+002	-2.470589e-001	1.476705e+002
3620000000	-1.793132e+001	1.681275e+002	-6.219038e-001	8.528737e+001	-5.616747e+001	1.619434e+002
	-6.280023e-001	8.533109e+001	-1.805696e+001	1.778166e+002	-5.668416e+001	1.705079e+002
	-5.623860e+001	1.619392e+002	-5.675880e+001	1.696864e+002	-2.476615e-001	1.473954e+002
3625000000	-1.785539e+001	1.678423e+002	-6.239981e-001	8.489053e+001	-5.617899e+001	1.611267e+002
	-6.297289e-001	8.492715e+001	-1.800245e+001	1.772899e+002	-5.662665e+001	1.698874e+002
	-5.623145e+001	1.610178e+002	-5.671892e+001	1.690685e+002	-2.480555e-001	1.471205e+002
3630000000	-1.778515e+001	1.675862e+002	-6.263201e-001	8.449454e+001	-5.616896e+001	1.602749e+002
	-6.315401e-001	8.452039e+001	-1.794467e+001	1.767669e+002	-5.658340e+001	1.691344e+002
	-5.622874e+001	1.603003e+002	-5.669719e+001	1.683557e+002	-2.484292e-001	1.468453e+002
3635000000	-1.770595e+001	1.673230e+002	-6.282131e-001	8.410169e+001	-5.618455e+001	1.592890e+002
	-6.339313e-001	8.412161e+001	-1.789039e+001	1.762470e+002	-5.654627e+001	1.684282e+002
	-5.627257e+001	1.593970e+002	-5.664356e+001	1.676092e+002	-2.489137e-001	1.465704e+002
3640000000	-1.763072e+001	1.670619e+002	-6.306261e-001	8.371019e+001	-5.622234e+001	1.584702e+002
	-6.359140e-001	8.372202e+001	-1.783029e+001	1.757616e+002	-5.652569e+001	1.677703e+002
	-5.630444e+001	1.585835e+002	-5.663753e+001	1.669351e+002	-2.494844e-001	1.462950e+002
3645000000	-1.755400e+001	1.668220e+002	-6.324814e-001	8.332415e+001	-5.626132e+001	1.577479e+002
	-6.384405e-001	8.332439e+001	-1.777348e+001	1.752639e+002	-5.650668e+001	1.671148e+002
	-5.634700e+001	1.578725e+002	-5.663632e+001	1.662797e+002	-2.498812e-001	1.460206e+002
3650000000	-1.747930e+001	1.665841e+002	-6.344720e-001	8.293974e+001	-5.629628e+001	1.569664e+002
	-6.412979e-001	8.293609e+001	-1.771720e+001	1.747736e+002	-5.649714e+001	1.665714e+002
	-5.639445e+001	1.571239e+002	-5.663046e+001	1.657309e+002	-2.501761e-001	1.457453e+002
3655000000	-1.740682e+001	1.663604e+002	-6.367851e-001	8.255769e+001	-5.633548e+001	1.562620e+002
	-6.436156e-001	8.254610e+001	-1.765802e+001	1.742860e+002	-5.646700e+001	1.660274e+002
	-5.642802e+001	1.564935e+002	-5.664078e+001	1.652359e+002	-2.506994e-001	1.454716e+002
3660000000	-1.734208e+001	1.661388e+002	-6.392358e-001	8.217015e+001	-5.637807e+001	1.555366e+002
	-6.464006e-001	8.215945e+001	-1.760131e+001	1.738254e+002	-5.642996e+001	1.655014e+002
	-5.647129e+001	1.559076e+002	-5.661596e+001	1.646674e+002	-2.511149e-001	1.451967e+002
3665000000	-1.727593e+001	1.659084e+002	-6.414374e-001	8.177999e+001	-5.640920e+001	1.547802e+002
	-6.497027e-001	8.176281e+001	-1.754575e+001	1.733231e+002	-5.638708e+001	1.650015e+002
	-5.650086e+001	1.551291e+002	-5.658844e+001	1.641931e+002	-2.517443e-001	1.449179e+002
3670000000	-1.721204e+001	1.656861e+002	-6.438340e-001	8.138567e+001	-5.647219e+001	1.540233e+002
	-6.526254e-001	8.136679e+001	-1.748931e+001	1.728469e+002	-5.634939e+001	1.643064e+002
	-5.655638e+001	1.543321e+002	-5.654948e+001	1.637741e+002	-2.521986e-001	1.446430e+002
3675000000	-1.715104e+001	1.654498e+002	-6.457061e-001	8.099338e+001	-5.653116e+001	1.530617e+002
	-6.556708e-001	8.096905e+001	-1.743262e+001	1.723600e+002	-5.630274e+001	1.638848e+002
	-5.661659e+001	1.537286e+002	-5.652303e+001	1.632043e+002	-2.522481e-001	1.443684e+002
3680000000	-1.709137e+001	1.652098e+002	-6.478702e-001	8.059610e+001	-5.659887e+001	1.521977e+002
	-6.584345e-001	8.057759e+001	-1.737460e+001	1.719065e+002	-5.624125e+001	1.631980e+002
	-5.669718e+001	1.529693e+002	-5.648558e+001	1.627724e+002	-2.526775e-001	1.440928e+002
3685000000	-1.703407e+001	1.649117e+002	-6.500071e-001	8.020262e+001	-5.672382e+001	1.514611e+002
	-6.612244e-001	8.018915e+001	-1.731898e+001	1.714333e+002	-5.619281e+001	1.626544e+002
	-5.678825e+001	1.524223e+002	-5.642345e+001	1.623211e+002	-2.527199e-001	1.438158e+002
3690000000	-1.697577e+001	1.646485e+002	-6.522501e-001	7.981192e+001	-5.684871e+001	1.507616e+002
	-6.639783e-001	7.979901e+001	-1.725670e+001	1.709433e+002	-5.610767e+001	1.618526e+002
	-5.689147e+001	1.516944e+002	-5.635596e+001	1.617224e+002	-2.528574e-001	1.435456e+002
3695000000	-1.691584e+001	1.643953e+002	-6.546366e-001	7.942402e+001	-5.697870e+001	1.502510e+002
	-6.670508e-001	7.941523e+001	-1.719696e+001	1.704801e+002	-5.605562e+001	1.611402e+002
	-5.702602e+001	1.513010e+002	-5.627199e+001	1.609633e+002	-2.529681e-001	1.432725e+002
3700000000	-1.685525e+001	1.641230e+002	-6.577100e-001	7.904074e+001	-5.714185e+001	1.499403e+002
	-6.697547e-001	7.903553e+001	-1.713663e+001	1.700079e+002	-5.596285e+001	1.602880e+002
	-5.715440e+001	1.510873e+002	-5.620226e+001	1.603078e+002	-2.530384e-001	1.429972e+002
3705000000	-1.679657e+001	1.638226e+002	-6.608463e-001	7.865579e+001	-5.730685e+001	1.498053e+002
	-6.732997e-001	7.865742e+001	-1.707254e+001	1.695146e+002	-5.588552e+001	1.593835e+002
	-5.731390e+001	1.510329e+002	-5.610699e+001	1.593554e+002	-2.531316e-001	1.427267e+002
3710000000	-1.674425e+001	1.635571e+002	-6.641490e-001	7.826809e+001	-5.749804e+001	1.498428e+002
	-6.763181e-001	7.827408e+001	-1.700989e+001	1.690076e+002	-5.580206e+001	1.583206e+002
	-5.746617e+001	1.511435e+002	-5.603306e+001	1.583273e+002	-2.529367e-001	1.424529e+002
3715000000	-1.668457e+001	1.631541e+002	-6.679642e-001	7.787911e+001	-5.766196e+001	1.504709e+002
	-6.805470e-001	7.789073e+001	-1.695165e+001	1.684913e+002	-5.572405e+001	1.570587e+002
	-5.763176e+001	1.516083e+002	-5.597383e+001	1.570405e+002	-2.524647e-001	1.421780e+002
3720000000	-1.664089e+001	1.628135e+002	-6.723637e-001	7.749059e+001	-5.785109e+001	1.512597e+002
	-6.842846e-001	7.750837e+001	-1.689453e+001	1.679685e+002	-5.566212e+001	1.556501e+002
	-5.777489e+001	1.524774e+002	-5.592109e+001	1.555829e+002	-2.521898e-001	1.419063e+002
3725000000	-1.659050e+001	1.623871e+002	-6.767215e-001	7.710397e+001	-5.796029e+001	1.527885e+002
	-6.882711e-001	7.712917e+001	-1.684163e+001	1.674448e+002	-5.561900e+001	1.539735e+002
	-5.790548e+001	1.538341e+002	-5.589999e+001	1.539450e+002	-2.518030e-001	1.416357e+002
3730000000	-1.655832e+001	1.620053e+002	-6.808962e-001	7.672461e+001	-5.798847e+001	1.545872e+002
	-6.915302e-001	7.675336e+001	-1.679241e+001	1.669323e+002	-5.562615e+001	1.519594e+002
	-5.792622e+001	1.556968e+002	-5.593906e+001	1.519823e+002	-2.511509e-001	1.413627e+002
3735000000	-1.652011e+001	1.615781e+002	-6.841562e-001	7.634897e+001	-5.788842e+001	1.567780e+002
	-6.946041e-001	7.638490e+001	-1.674639e+001	1.664438e+002	-5.570944e+001	1.500291e+002
	-5.781072e+001	1.578114e+002	-5.604348e+001	1.500801e+002	-2.512454e-001	1.410938e+002
3740000000	-1.650762e+001	1.612708e+002	-6.867565e-001	7.597924e+001	-5.761646e+001	1.585706e+002
	-6.956810e-001	7.602101e+001	-1.669936e+001	1.659941e+002	-5.587185e+001	1.482571e+002
	-5.753346e+001	1.595583e+002	-5.621796e+001	1.482801e+002	-2.511442e-001	1.408237e+002
3745000000	-1.647501e+001	1.609685e+002	-6.887367e-001	7.561508e+001	-5.723745e+001	1.594937e+002
	-6.958173e-001	7.565712e+001	-1.665227e+001	1.655240e+002	-5.610360e+001	1.468691e+002
	-5.716305e+001	1.603368e+002	-5.646639e+001	1.470463e+002	-2.503553e-001	1.405590e+002
3750000000	-1.644866e+001	1.607296e+002	-6.906818e-001	7.524374e+001	-5.685377e+001	1.593878e+002
	-6.955577e-001	7.529640e+001	-1.659533e+001	1.651206e+002	-5.634040e+001	1.460428e+002
	-5.678419e+001	1.601794e+002	-5.673440e+001	1.463015e+002	-2.500146e-001	1.402954e+002
3755000000	-1.641658e+001	1.605373e+002	-6.936883e-001	7.486981e+001	-5.654939e+001	1.584967e+002
	-6.948970e-001	7.492429e+001	-1.653828e+001	1.646626e+002	-5.657083e+001	1.459322e+002
	-5.646664e+001	1.592633e+002	-5.695560e+001	1.461957e+002	-2.498922e-001	1.400339e+002
3760000000	-1.637983e+001	1.603663e+002	-6.968971e-001	7.448436e+001	-5.630374e+001	1.572306e+002
	-6.945350e-001	7.454284e+001	-1.647713e+001	1.642210e+002	-5.675112e+001	1.460056e+002
	-5.623187e+001	1.580185e+002	-5.713201e+001	1.462734e+002	-2.498414e-001	1.397682e+002
3765000000	-1.633324e+001	1.601687e+002	-7.001650e-001	7.409090e+001	-5.613307e+001	1.558361e+002
	-6.944646e-001	7.415011e+001	-1.641702e+001	1.638156e+002	-5.688647e+001	1.464794e+002
	-5.605344e+001	1.565229e+002	-5.725287e+001	1.465788e+002	-2.498489e-001	1.395062e+002
3770000000	-1.628765e+001	1.599633e+002	-7.042585e-001	7.369652e+001	-5.602518e+001	1.544991e+002
	-6.950713e-001	7.374804e+001	-1.634721e+001	1.632638e+002	-5.695667e+001	1.468946e+002
	-5.594283e+001	1.551500e+002	-5.731796e+001	1.469952e+002	-2.499107e-001	1.392428e+002
3775000000	-1.623709e+001	1.597170e+002	-7.069720e-001	7.329702e+001	-5.594703e+001	1.532460e+002
	-6.955028e-001	7.335137e+001	-1.628984e+001	1.628223e+002	-5.699911e+001	1.472541e+002
	-5.587339e+001	1.538226e+002	-5.735306e+001	1.473253e+002	-2.503227e-001	1.389796e+002
3780000000	-1.618222e+001	1.594484e+002	-7.095946e-001	7.290053e+001	-5.588048e+001	1.520450e+002
	-6.966968e-001	7.294937e+001	-1.622437e+001	1.622997e+002	-5.700575e+001	1.476121e+002
	-5.579930e+001	1.525272e+002	-5.735045e+001	1.474778e+002	-2.506458e-001	1.387177e+002
3785000000	-1.612785e+001	1.591630e+002	-7.113834e-001	7.250685e+001	-5.584336e+001	1.509171e+002
	-6.979655e-001	7.255076e+001	-1.616353e+001	1.617981e+002	-5.700936e+001	1.477173e+002
	-5.577378e+001	1.513729e+002	-5.733860e+001	1.475675e+002	-2.508991e-001	1.384538e+002
3790000000	-1.606722e+001	1.588480e+002	-7.126675e-001	7.211727e+001	-5.582590e+001	1.498873e+002
	-6.995091e-001	7.215264e+001	-1.610569e+001	1.612615e+002	-5.697769e+001	1.478800e+002
	-5.574234e+001	1.503356e+002	-5.731468e+001	1.473771e+002	-2.511536e-001	1.381933e+002
3795000000	-1.601356e+001	1.585294e+002	-7.134326e-001	7.173066e+001	-5.579925e+001	1.489706e+002
	-7.019153e-001	7.175976e+001	-1.604877e+001	1.607993e+002	-5.696808e+001	1.478428e+002
	-5.572877e+001	1.493579e+002	-5.726289e+001	1.472911e+002	-2.513421e-001	1.379314e+002
3800000000	-1.595090e+001	1.582013e+002	-7.148308e-001	7.135152e+001	-5.578268e+001	1.480521e+002
	-7.037552e-001	7.137036e+001	-1.599208e+001	1.602866e+002	-5.694116e+001	1.477967e+002
	-5.570335e+001	1.484390e+002	-5.718589e+001	1.472671e+002	-2.521053e-001	1.376685e+002
3805000000	-1.589033e+001	1.578706e+002	-7.166230e-001	7.096988e+001	-5.577938e+001	1.471714e+002
	-7.059547e-001	7.098658e+001	-1.592616e+001	1.598114e+002	-5.689969e+001	1.475967e+002
	-5.569781e+001	1.476331e+002	-5.714117e+001	1.472431e+002	-2.526577e-001	1.374097e+002
3810000000	-1.582889e+001	1.575208e+002	-7.182795e-001	7.058388e+001	-5.577374e+001	1.464882e+002
	-7.082437e-001	7.059344e+001	-1.587439e+001	1.593502e+002	-5.686246e+001	1.475339e+002
	-5.567995e+001	1.467783e+002	-5.708472e+001	1.470457e+002	-2.530581e-001	1.371468e+002
3815000000	-1.576803e+001	1.571634e+002	-7.198259e-001	7.019286e+001	-5.576329e+001	1.456159e+002
	-7.104739e-001	7.020119e+001	-1.582644e+001	1.589291e+002	-5.682603e+001	1.472934e+002
	-5.566528e+001	1.459582e+002	-5.702060e+001	1.467482e+002	-2.536919e-001	1.368875e+002
3820000000	-1.570624e+001	1.568107e+002	-7.205487e-001	6.980166e+001	-5.575060e+001	1.448976e+002
	-7.122607e-001	6.980305e+001	-1.577746e+001	1.584817e+002	-5.680806e+001	1.470129e+002
	-5.564941e+001	1.451524e+002	-5.698209e+001	1.464189e+002	-2.543302e-001	1.366224e+002
3825000000	-1.564500e+001	1.564243e+002	-7.212809e-001	6.940644e+001	-5.574966e+001	1.441381e+002
	-7.147719e-001	6.941274e+001	-1.573203e+001	1.580679e+002	-5.677864e+001	1.468558e+002
	-5.565460e+001	1.444045e+002	-5.694381e+001	1.461366e+002	-2.546811e-001	1.363602e+002
3830000000	-1.558492e+001	1.560690e+002	-7.218955e-001	6.901093e+001	-5.574627e+001	1.434669e+002
	-7.166854e-001	6.901702e+001	-1.569172e+001	1.576456e+002	-5.672203e+001	1.464850e+002
	-5.564418e+001	1.436318e+002	-5.690512e+001	1.457922e+002	-2.549522e-001	1.360990e+002
3835000000	-1.552263e+001	1.557192e+002	-7.233322e-001	6.861936e+001	-5.574278e+001	1.427225e+002
	-7.188417e-001	6.862531e+001	-1.564706e+001	1.572309e+002	-5.669679e+001	1.462838e+002
	-5.563598e+001	1.428826e+002	-5.687510e+001	1.452254e+002	-2.556234e-001	1.358343e+002
3840000000	-1.546296e+001	1.553644e+002	-7.243539e-001	6.822771e+001	-5.572442e+001	1.419817e+002
	-7.208414e-001	6.823413e+001	-1.560333e+001	1.568057e+002	-5.665241e+001	1.460129e+002
	-5.565110e+001	1.421353e+002	-5.682920e+001	1.447566e+002	-2.560457e-001	1.355711e+002
3845000000	-1.540294e+001	1.550354e+002	-7.260307e-001	6.783703e+001	-5.573815e+001	1.413494e+002
	-7.227618e-001	6.784656e+001	-1.555846e+001	1.563841e+002	-5.659089e+001	1.456003e+002
	-5.566421e+001	1.413476e+002	-5.681412e+001	1.441765e+002	-2.565970e-001	1.353060e+002
3850000000	-1.534497e+001	1.547098e+002	-7.280018e-001	6.745340e+001	-5.572345e+001	1.406675e+002
	-7.248531e-001	6.746457e+001	-1.551384e+001	1.559559e+002	-5.655718e+001	1.452448e+002
	-5.567967e+001	1.407042e+002	-5.681698e+001	1.436355e+002	-2.572968e-001	1.350352e+002
