!Agilent Technologies,E5071B,MY42403545,A.09.10
!Date: Thu Jul 11 07:03:44 2019
!Data & Calibration Information:
!Freq	S11:SOLT3(ON)	S12:SOLT3(ON)	S13:SOLT3(ON)
!	S21:SOLT3(ON)	S22:SOLT3(ON)	S23:SOLT3(ON)
!	S31:SOLT3(ON)	S32:SOLT3(ON)	S33:SOLT3(ON)
# Hz S dB R 50
3500000000	-9.734360e-001	-6.693290e+001	-3.093826e+001	-1.652541e+002	-5.545786e+001	5.952979e+001
	-3.101971e+001	-1.640145e+002	-1.277573e+000	-7.278403e+001	-5.622531e+001	6.120362e+001
	-5.629558e+001	6.207816e+001	-5.765845e+001	6.994881e+001	-4.567915e-001	-1.156575e+001
3505000000	-9.745276e-001	-6.732279e+001	-3.096091e+001	-1.655450e+002	-5.542406e+001	5.900690e+001
	-3.104027e+001	-1.641481e+002	-1.287563e+000	-7.315130e+001	-5.626931e+001	6.150289e+001
	-5.639473e+001	6.175789e+001	-5.770480e+001	6.976988e+001	-4.577087e-001	-1.183334e+001
3510000000	-9.775271e-001	-6.771016e+001	-3.098785e+001	-1.656982e+002	-5.543722e+001	5.872122e+001
	-3.105809e+001	-1.641596e+002	-1.299574e+000	-7.359549e+001	-5.633785e+001	6.157399e+001
	-5.646190e+001	6.147857e+001	-5.775753e+001	6.954135e+001	-4.601135e-001	-1.209749e+001
3515000000	-9.806367e-001	-6.809797e+001	-3.100216e+001	-1.656716e+002	-5.546679e+001	5.843502e+001
	-3.106011e+001	-1.640016e+002	-1.311696e+000	-7.406112e+001	-5.640014e+001	6.124803e+001
	-5.656207e+001	6.126916e+001	-5.781665e+001	6.924488e+001	-4.657614e-001	-1.236715e+001
3520000000	-9.826736e-001	-6.847101e+001	-3.098545e+001	-1.654824e+002	-5.552833e+001	5.809346e+001
	-3.102842e+001	-1.637002e+002	-1.321249e+000	-7.446282e+001	-5.647585e+001	6.071488e+001
	-5.664048e+001	6.125244e+001	-5.787232e+001	6.866785e+001	-4.742169e-001	-1.265561e+001
3525000000	-9.857552e-001	-6.882446e+001	-3.091456e+001	-1.652723e+002	-5.555967e+001	5.774301e+001
	-3.094205e+001	-1.634028e+002	-1.330758e+000	-7.485479e+001	-5.659657e+001	6.027440e+001
	-5.670960e+001	6.120625e+001	-5.796770e+001	6.815973e+001	-4.795727e-001	-1.293470e+001
3530000000	-9.884748e-001	-6.915359e+001	-3.079761e+001	-1.653096e+002	-5.556911e+001	5.736376e+001
	-3.080555e+001	-1.633641e+002	-1.339920e+000	-7.523081e+001	-5.672471e+001	5.993330e+001
	-5.676103e+001	6.109905e+001	-5.807770e+001	6.781254e+001	-4.765650e-001	-1.318702e+001
3535000000	-9.914374e-001	-6.949056e+001	-3.067683e+001	-1.657645e+002	-5.553164e+001	5.728846e+001
	-3.065736e+001	-1.637965e+002	-1.348906e+000	-7.561230e+001	-5.685484e+001	5.964011e+001
	-5.680604e+001	6.090534e+001	-5.820701e+001	6.739635e+001	-4.614115e-001	-1.342922e+001
3540000000	-9.932802e-001	-6.982733e+001	-3.059831e+001	-1.664768e+002	-5.561222e+001	5.666355e+001
	-3.054219e+001	-1.645402e+002	-1.359447e+000	-7.600636e+001	-5.700969e+001	5.918322e+001
	-5.684537e+001	6.066489e+001	-5.833464e+001	6.728599e+001	-4.710923e-001	-1.367941e+001
3545000000	-9.949249e-001	-7.017876e+001	-3.055472e+001	-1.671964e+002	-5.566726e+001	5.612120e+001
	-3.047177e+001	-1.654182e+002	-1.374319e+000	-7.641920e+001	-5.719872e+001	5.911999e+001
	-5.688263e+001	6.039274e+001	-5.844108e+001	6.718363e+001	-4.796091e-001	-1.394596e+001
3550000000	-9.962520e-001	-7.053027e+001	-3.053127e+001	-1.678744e+002	-5.575064e+001	5.529293e+001
	-3.043412e+001	-1.662569e+002	-1.389399e+000	-7.683893e+001	-5.735779e+001	5.898091e+001
	-5.691763e+001	6.027649e+001	-5.854154e+001	6.710502e+001	-4.985999e-001	-1.422641e+001
3555000000	-9.994086e-001	-7.089015e+001	-3.051638e+001	-1.685587e+002	-5.580964e+001	5.426723e+001
	-3.041800e+001	-1.670107e+002	-1.404723e+000	-7.725386e+001	-5.744287e+001	5.859048e+001
	-5.696920e+001	5.999010e+001	-5.864176e+001	6.691990e+001	-5.171734e-001	-1.453829e+001
3560000000	-1.003787e+000	-7.125526e+001	-3.051185e+001	-1.692524e+002	-5.589508e+001	5.309596e+001
	-3.041274e+001	-1.676686e+002	-1.420350e+000	-7.766982e+001	-5.754550e+001	5.829784e+001
	-5.699827e+001	5.975640e+001	-5.871847e+001	6.684045e+001	-5.389636e-001	-1.483223e+001
3565000000	-1.009554e+000	-7.161831e+001	-3.050881e+001	-1.699612e+002	-5.598058e+001	5.202133e+001
	-3.041764e+001	-1.682762e+002	-1.435514e+000	-7.807836e+001	-5.759765e+001	5.790558e+001
	-5.703646e+001	5.932095e+001	-5.882291e+001	6.670451e+001	-5.561990e-001	-1.510498e+001
3570000000	-1.016365e+000	-7.198240e+001	-3.050877e+001	-1.706684e+002	-5.605332e+001	5.111264e+001
	-3.042635e+001	-1.688564e+002	-1.451694e+000	-7.847929e+001	-5.766465e+001	5.721868e+001
	-5.710385e+001	5.917340e+001	-5.891029e+001	6.654741e+001	-5.750281e-001	-1.537170e+001
3575000000	-1.023298e+000	-7.235253e+001	-3.051465e+001	-1.713426e+002	-5.611807e+001	5.039936e+001
	-3.044409e+001	-1.695002e+002	-1.467490e+000	-7.887990e+001	-5.773591e+001	5.652688e+001
	-5.713497e+001	5.893905e+001	-5.900415e+001	6.642994e+001	-5.948839e-001	-1.563321e+001
3580000000	-1.030736e+000	-7.272085e+001	-3.052430e+001	-1.719814e+002	-5.619511e+001	4.975770e+001
	-3.043825e+001	-1.701854e+002	-1.480296e+000	-7.927858e+001	-5.780182e+001	5.545649e+001
	-5.715260e+001	5.876323e+001	-5.908047e+001	6.617033e+001	-6.154324e-001	-1.590396e+001
3585000000	-1.039638e+000	-7.308787e+001	-3.053175e+001	-1.725817e+002	-5.626718e+001	4.906606e+001
	-3.043192e+001	-1.707152e+002	-1.491800e+000	-7.967462e+001	-5.789686e+001	5.477663e+001
	-5.718318e+001	5.820092e+001	-5.918632e+001	6.612263e+001	-6.302716e-001	-1.616481e+001
3590000000	-1.047795e+000	-7.345964e+001	-3.054082e+001	-1.731790e+002	-5.633230e+001	4.840102e+001
	-3.042889e+001	-1.712142e+002	-1.502930e+000	-8.006323e+001	-5.797433e+001	5.422706e+001
	-5.720091e+001	5.769833e+001	-5.927754e+001	6.589590e+001	-6.436892e-001	-1.641382e+001
3595000000	-1.056383e+000	-7.382611e+001	-3.055088e+001	-1.737594e+002	-5.640401e+001	4.785725e+001
	-3.042567e+001	-1.717120e+002	-1.514752e+000	-8.045675e+001	-5.805854e+001	5.374412e+001
	-5.721660e+001	5.693889e+001	-5.937251e+001	6.568622e+001	-6.557575e-001	-1.666178e+001
3600000000	-1.065105e+000	-7.419877e+001	-3.056557e+001	-1.743125e+002	-5.649774e+001	4.729058e+001
	-3.042510e+001	-1.722030e+002	-1.527559e+000	-8.083865e+001	-5.812752e+001	5.315512e+001
	-5.726916e+001	5.644441e+001	-5.950695e+001	6.579018e+001	-6.662091e-001	-1.691358e+001
3605000000	-1.073494e+000	-7.457420e+001	-3.058389e+001	-1.748514e+002	-5.657056e+001	4.684512e+001
	-3.042495e+001	-1.726850e+002	-1.541647e+000	-8.121894e+001	-5.818720e+001	5.249936e+001
	-5.733798e+001	5.598114e+001	-5.959570e+001	6.565825e+001	-6.750547e-001	-1.714258e+001
3610000000	-1.082453e+000	-7.495414e+001	-3.060172e+001	-1.753709e+002	-5.667147e+001	4.636095e+001
	-3.042864e+001	-1.731724e+002	-1.556324e+000	-8.159582e+001	-5.831340e+001	5.245443e+001
	-5.741398e+001	5.522955e+001	-5.967622e+001	6.558365e+001	-6.825654e-001	-1.738175e+001
3615000000	-1.092192e+000	-7.533839e+001	-3.061837e+001	-1.758643e+002	-5.676501e+001	4.590286e+001
	-3.043521e+001	-1.736492e+002	-1.570343e+000	-8.197002e+001	-5.846753e+001	5.270404e+001
	-5.750363e+001	5.459424e+001	-5.978265e+001	6.559744e+001	-6.897313e-001	-1.761554e+001
3620000000	-1.100884e+000	-7.572175e+001	-3.063526e+001	-1.763461e+002	-5.686420e+001	4.551448e+001
	-3.044427e+001	-1.741143e+002	-1.583250e+000	-8.234455e+001	-5.861550e+001	5.260517e+001
	-5.757459e+001	5.386693e+001	-5.987369e+001	6.568608e+001	-6.994243e-001	-1.784398e+001
3625000000	-1.107836e+000	-7.610523e+001	-3.065238e+001	-1.768311e+002	-5.695481e+001	4.532859e+001
	-3.045382e+001	-1.745556e+002	-1.596983e+000	-8.270617e+001	-5.874030e+001	5.241956e+001
	-5.767611e+001	5.352928e+001	-5.995636e+001	6.590642e+001	-7.094310e-001	-1.807607e+001
3630000000	-1.114049e+000	-7.649361e+001	-3.067086e+001	-1.773311e+002	-5.703871e+001	4.510425e+001
	-3.046757e+001	-1.749892e+002	-1.610972e+000	-8.306920e+001	-5.882465e+001	5.227284e+001
	-5.778503e+001	5.319826e+001	-5.996032e+001	6.588545e+001	-7.187136e-001	-1.830749e+001
3635000000	-1.116357e+000	-7.687738e+001	-3.069121e+001	-1.778483e+002	-5.710954e+001	4.480677e+001
	-3.048147e+001	-1.754257e+002	-1.625691e+000	-8.342789e+001	-5.893386e+001	5.201126e+001
	-5.789792e+001	5.285179e+001	-5.972150e+001	6.561046e+001	-7.262265e-001	-1.854150e+001
3640000000	-1.118624e+000	-7.727297e+001	-3.071486e+001	-1.783735e+002	-5.716348e+001	4.456570e+001
	-3.049327e+001	-1.758595e+002	-1.639118e+000	-8.379404e+001	-5.902477e+001	5.166391e+001
	-5.799913e+001	5.282086e+001	-5.971239e+001	6.534766e+001	-7.322278e-001	-1.877302e+001
3645000000	-1.118914e+000	-7.766384e+001	-3.073609e+001	-1.788912e+002	-5.723239e+001	4.458090e+001
	-3.050452e+001	-1.762573e+002	-1.651273e+000	-8.415653e+001	-5.913047e+001	5.139176e+001
	-5.804244e+001	5.274282e+001	-5.977443e+001	6.552556e+001	-7.388655e-001	-1.900398e+001
3650000000	-1.119127e+000	-7.806237e+001	-3.075463e+001	-1.793606e+002	-5.729033e+001	4.419600e+001
	-3.051371e+001	-1.766266e+002	-1.661704e+000	-8.451046e+001	-5.923249e+001	5.103449e+001
	-5.810218e+001	5.263534e+001	-5.987039e+001	6.507379e+001	-7.445742e-001	-1.923624e+001
3655000000	-1.118410e+000	-7.846291e+001	-3.077552e+001	-1.798161e+002	-5.734358e+001	4.416279e+001
	-3.052111e+001	-1.769752e+002	-1.672351e+000	-8.486476e+001	-5.933122e+001	5.090036e+001
	-5.816739e+001	5.245031e+001	-5.991806e+001	6.475210e+001	-7.485515e-001	-1.947625e+001
3660000000	-1.116800e+000	-7.886725e+001	-3.079360e+001	1.797455e+002	-5.739416e+001	4.394277e+001
	-3.052671e+001	-1.773159e+002	-1.682568e+000	-8.522064e+001	-5.943003e+001	5.059132e+001
	-5.822726e+001	5.212602e+001	-5.995845e+001	6.446553e+001	-7.516894e-001	-1.971906e+001
3665000000	-1.114132e+000	-7.926936e+001	-3.081028e+001	1.793313e+002	-5.741465e+001	4.364161e+001
	-3.052947e+001	-1.776526e+002	-1.691365e+000	-8.558104e+001	-5.951412e+001	5.019423e+001
	-5.826002e+001	5.205811e+001	-6.005672e+001	6.407019e+001	-7.539546e-001	-1.996460e+001
3670000000	-1.110785e+000	-7.967162e+001	-3.082370e+001	1.789420e+002	-5.745184e+001	4.329167e+001
	-3.052963e+001	-1.779731e+002	-1.698657e+000	-8.593518e+001	-5.956359e+001	4.987645e+001
	-5.832101e+001	5.164493e+001	-6.016467e+001	6.374392e+001	-7.552935e-001	-2.021463e+001
3675000000	-1.105242e+000	-8.007730e+001	-3.083421e+001	1.785581e+002	-5.751319e+001	4.287315e+001
	-3.052636e+001	-1.782894e+002	-1.699776e+000	-8.628009e+001	-5.965320e+001	4.970591e+001
	-5.837592e+001	5.156756e+001	-6.018145e+001	6.395154e+001	-7.573026e-001	-2.046332e+001
3680000000	-1.100893e+000	-8.047402e+001	-3.084307e+001	1.781852e+002	-5.755789e+001	4.245108e+001
	-3.052342e+001	-1.786044e+002	-1.704270e+000	-8.657913e+001	-5.971978e+001	4.961741e+001
	-5.842222e+001	5.125415e+001	-6.019625e+001	6.422109e+001	-7.590872e-001	-2.070828e+001
3685000000	-1.097957e+000	-8.087633e+001	-3.085339e+001	1.778232e+002	-5.759673e+001	4.202283e+001
	-3.051947e+001	-1.789368e+002	-1.707848e+000	-8.694658e+001	-5.980266e+001	4.959081e+001
	-5.846990e+001	5.109103e+001	-6.021484e+001	6.425568e+001	-7.623668e-001	-2.095283e+001
3690000000	-1.093147e+000	-8.128468e+001	-3.086436e+001	1.774522e+002	-5.761626e+001	4.161998e+001
	-3.051057e+001	-1.792897e+002	-1.709748e+000	-8.731889e+001	-5.984152e+001	4.938057e+001
	-5.854740e+001	5.087551e+001	-6.026189e+001	6.434539e+001	-7.657630e-001	-2.119961e+001
3695000000	-1.089895e+000	-8.170015e+001	-3.088130e+001	1.770774e+002	-5.763934e+001	4.123949e+001
	-3.049929e+001	-1.796600e+002	-1.707817e+000	-8.768298e+001	-5.987907e+001	4.935577e+001
	-5.858829e+001	5.072247e+001	-6.027193e+001	6.441671e+001	-7.674040e-001	-2.144903e+001
3700000000	-1.085927e+000	-8.210639e+001	-3.089539e+001	1.766538e+002	-5.768816e+001	4.098174e+001
	-3.048275e+001	1.799372e+002	-1.706070e+000	-8.806303e+001	-5.989917e+001	4.933458e+001
	-5.862372e+001	5.071908e+001	-6.024625e+001	6.442000e+001	-7.684519e-001	-2.168806e+001
3705000000	-1.083766e+000	-8.250689e+001	-3.090778e+001	1.762292e+002	-5.773249e+001	4.050760e+001
	-3.046006e+001	1.795049e+002	-1.704093e+000	-8.846078e+001	-5.994080e+001	4.891520e+001
	-5.867047e+001	5.052846e+001	-6.024796e+001	6.437936e+001	-7.717879e-001	-2.193259e+001
3710000000	-1.085742e+000	-8.291287e+001	-3.091720e+001	1.758340e+002	-5.779883e+001	4.034774e+001
	-3.043807e+001	1.791007e+002	-1.699634e+000	-8.881561e+001	-5.996708e+001	4.872782e+001
	-5.870638e+001	5.032382e+001	-6.026272e+001	6.410480e+001	-7.747997e-001	-2.217849e+001
3715000000	-1.087491e+000	-8.330589e+001	-3.092729e+001	1.754455e+002	-5.785435e+001	4.006276e+001
	-3.041546e+001	1.786786e+002	-1.698240e+000	-8.920532e+001	-6.000594e+001	4.821844e+001
	-5.874603e+001	5.009570e+001	-6.022353e+001	6.411021e+001	-7.780356e-001	-2.242292e+001
3720000000	-1.091995e+000	-8.370932e+001	-3.093687e+001	1.750573e+002	-5.790552e+001	3.966573e+001
	-3.037033e+001	1.783059e+002	-1.695738e+000	-8.960011e+001	-6.006662e+001	4.777560e+001
	-5.878468e+001	4.989905e+001	-6.021421e+001	6.390993e+001	-7.817313e-001	-2.266984e+001
3725000000	-1.097893e+000	-8.409278e+001	-3.094439e+001	1.746597e+002	-5.795871e+001	3.937631e+001
	-3.031617e+001	1.782864e+002	-1.692903e+000	-8.999813e+001	-6.009139e+001	4.728951e+001
	-5.881362e+001	4.960187e+001	-6.018125e+001	6.385455e+001	-7.855667e-001	-2.291675e+001
3730000000	-1.108027e+000	-8.451500e+001	-3.095646e+001	1.742754e+002	-5.801743e+001	3.887300e+001
	-3.034358e+001	1.784576e+002	-1.690545e+000	-9.040081e+001	-6.015095e+001	4.691708e+001
	-5.883741e+001	4.927856e+001	-6.020005e+001	6.358149e+001	-7.887450e-001	-2.316927e+001
3735000000	-1.114679e+000	-8.493912e+001	-3.097067e+001	1.739034e+002	-5.804946e+001	3.856471e+001
	-3.039395e+001	1.782362e+002	-1.688781e+000	-9.080895e+001	-6.020168e+001	4.649127e+001
	-5.887833e+001	4.903137e+001	-6.020412e+001	6.327007e+001	-7.919565e-001	-2.342029e+001
3740000000	-1.115073e+000	-8.535132e+001	-3.098835e+001	1.735448e+002	-5.811419e+001	3.823306e+001
	-3.041796e+001	1.778255e+002	-1.686536e+000	-9.123023e+001	-6.025671e+001	4.598577e+001
	-5.890291e+001	4.886075e+001	-6.024371e+001	6.304326e+001	-7.962306e-001	-2.366544e+001
3745000000	-1.116927e+000	-8.575230e+001	-3.100747e+001	1.731780e+002	-5.817234e+001	3.800384e+001
	-3.042656e+001	1.773957e+002	-1.683871e+000	-9.164218e+001	-6.031690e+001	4.563538e+001
	-5.892295e+001	4.851189e+001	-6.025363e+001	6.300406e+001	-8.004744e-001	-2.390814e+001
3750000000	-1.118436e+000	-8.615333e+001	-3.102581e+001	1.728349e+002	-5.822170e+001	3.778754e+001
	-3.043284e+001	1.770063e+002	-1.680658e+000	-9.207121e+001	-6.036522e+001	4.519183e+001
	-5.895507e+001	4.832753e+001	-6.031035e+001	6.282048e+001	-8.053792e-001	-2.415050e+001
3755000000	-1.119393e+000	-8.653846e+001	-3.105063e+001	1.725358e+002	-5.830149e+001	3.747021e+001
	-3.043771e+001	1.766477e+002	-1.678590e+000	-9.249289e+001	-6.043295e+001	4.465581e+001
	-5.897542e+001	4.786078e+001	-6.036664e+001	6.225453e+001	-8.104589e-001	-2.438916e+001
3760000000	-1.125941e+000	-8.692444e+001	-3.107680e+001	1.722855e+002	-5.837171e+001	3.719580e+001
	-3.044730e+001	1.763279e+002	-1.678603e+000	-9.291612e+001	-6.047221e+001	4.423529e+001
	-5.901532e+001	4.746510e+001	-6.039822e+001	6.182575e+001	-8.162255e-001	-2.462479e+001
3765000000	-1.136856e+000	-8.731167e+001	-3.110118e+001	1.720838e+002	-5.843625e+001	3.690647e+001
	-3.045963e+001	1.760413e+002	-1.679612e+000	-9.334184e+001	-6.052671e+001	4.372778e+001
	-5.905426e+001	4.714607e+001	-6.040918e+001	6.156512e+001	-8.217211e-001	-2.486445e+001
3770000000	-1.148154e+000	-8.769943e+001	-3.112415e+001	1.719255e+002	-5.850772e+001	3.669413e+001
	-3.047455e+001	1.758146e+002	-1.682472e+000	-9.376783e+001	-6.059876e+001	4.305424e+001
	-5.912461e+001	4.698668e+001	-6.046811e+001	6.117834e+001	-8.269300e-001	-2.510535e+001
3775000000	-1.161021e+000	-8.808399e+001	-3.114096e+001	1.718702e+002	-5.860786e+001	3.639590e+001
	-3.048774e+001	1.756417e+002	-1.686262e+000	-9.418789e+001	-6.068303e+001	4.238357e+001
	-5.913957e+001	4.675399e+001	-6.048794e+001	6.093634e+001	-8.315042e-001	-2.534587e+001
3780000000	-1.173783e+000	-8.846622e+001	-3.114945e+001	1.719025e+002	-5.870604e+001	3.638509e+001
	-3.049347e+001	1.755384e+002	-1.691665e+000	-9.460637e+001	-6.073029e+001	4.169705e+001
	-5.921228e+001	4.672419e+001	-6.052720e+001	6.092670e+001	-8.357192e-001	-2.558797e+001
3785000000	-1.186901e+000	-8.884596e+001	-3.113852e+001	1.720049e+002	-5.880999e+001	3.649078e+001
	-3.048393e+001	1.755378e+002	-1.697856e+000	-9.502176e+001	-6.081637e+001	4.117583e+001
	-5.927680e+001	4.678457e+001	-6.098080e+001	6.171080e+001	-8.385592e-001	-2.582841e+001
3790000000	-1.199750e+000	-8.921577e+001	-3.109809e+001	1.721161e+002	-5.887266e+001	3.674888e+001
	-3.044816e+001	1.756013e+002	-1.704794e+000	-9.542505e+001	-6.088770e+001	4.052144e+001
	-5.930104e+001	4.659326e+001	-6.110483e+001	6.114178e+001	-8.399698e-001	-2.607181e+001
3795000000	-1.209680e+000	-8.956507e+001	-3.101934e+001	1.721421e+002	-5.887525e+001	3.734849e+001
	-3.037083e+001	1.755665e+002	-1.709617e+000	-9.583277e+001	-6.096277e+001	3.981456e+001
	-5.931690e+001	4.672947e+001	-6.118396e+001	6.065235e+001	-8.392007e-001	-2.631038e+001
3800000000	-1.214625e+000	-8.988618e+001	-3.091561e+001	1.719276e+002	-5.883600e+001	3.757171e+001
	-3.024391e+001	1.752847e+002	-1.716393e+000	-9.621515e+001	-6.105660e+001	3.913534e+001
	-5.928345e+001	4.677356e+001	-6.125480e+001	6.039325e+001	-8.367242e-001	-2.655095e+001
3805000000	-1.220987e+000	-9.023966e+001	-3.081224e+001	1.714238e+002	-5.872900e+001	3.736727e+001
	-3.014562e+001	1.747936e+002	-1.718313e+000	-9.659508e+001	-6.115801e+001	3.904404e+001
	-5.920274e+001	4.642427e+001	-6.135822e+001	6.012936e+001	-8.340940e-001	-2.678798e+001
3810000000	-1.221543e+000	-9.059257e+001	-3.072864e+001	1.707000e+002	-5.866335e+001	3.699404e+001
	-3.006492e+001	1.739754e+002	-1.724314e+000	-9.698696e+001	-6.126961e+001	3.906640e+001
	-5.914033e+001	4.598950e+001	-6.142104e+001	6.013135e+001	-8.345988e-001	-2.703224e+001
3815000000	-1.223746e+000	-9.094811e+001	-3.067451e+001	1.699098e+002	-5.859129e+001	3.610038e+001
	-3.001461e+001	1.730970e+002	-1.729913e+000	-9.738267e+001	-6.137277e+001	3.929599e+001
	-5.912188e+001	4.535533e+001	-6.149356e+001	6.012755e+001	-8.363001e-001	-2.726647e+001
3820000000	-1.227445e+000	-9.131703e+001	-3.064208e+001	1.691633e+002	-5.857395e+001	3.510512e+001
	-2.999629e+001	1.722617e+002	-1.737182e+000	-9.777020e+001	-6.149946e+001	3.927177e+001
	-5.912323e+001	4.461033e+001	-6.157355e+001	6.025889e+001	-8.453786e-001	-2.749951e+001
3825000000	-1.232660e+000	-9.169486e+001	-3.062372e+001	1.684646e+002	-5.855216e+001	3.444647e+001
	-2.999749e+001	1.714925e+002	-1.745224e+000	-9.815977e+001	-6.156062e+001	3.931003e+001
	-5.915983e+001	4.397453e+001	-6.162478e+001	6.024371e+001	-8.552171e-001	-2.775744e+001
3830000000	-1.237166e+000	-9.208219e+001	-3.061610e+001	1.678489e+002	-5.855608e+001	3.365630e+001
	-3.000345e+001	1.708365e+002	-1.753397e+000	-9.854238e+001	-6.163979e+001	3.882087e+001
	-5.919840e+001	4.371075e+001	-6.165250e+001	6.031917e+001	-8.616419e-001	-2.801603e+001
3835000000	-1.241448e+000	-9.247518e+001	-3.061627e+001	1.672446e+002	-5.854535e+001	3.346502e+001
	-3.001365e+001	1.702685e+002	-1.761893e+000	-9.892761e+001	-6.175788e+001	3.794792e+001
	-5.923882e+001	4.321975e+001	-6.172446e+001	6.020094e+001	-8.624631e-001	-2.828098e+001
3840000000	-1.243780e+000	-9.286380e+001	-3.061912e+001	1.666567e+002	-5.859912e+001	3.342670e+001
	-3.002149e+001	1.697740e+002	-1.769379e+000	-9.930309e+001	-6.182527e+001	3.741840e+001
	-5.932187e+001	4.259262e+001	-6.180378e+001	6.017794e+001	-8.621480e-001	-2.853091e+001
3845000000	-1.245342e+000	-9.325943e+001	-3.062561e+001	1.660919e+002	-5.865705e+001	3.314937e+001
	-3.002761e+001	1.693076e+002	-1.777531e+000	-9.967448e+001	-6.188002e+001	3.702823e+001
	-5.938021e+001	4.186514e+001	-6.185885e+001	6.025627e+001	-8.620074e-001	-2.877548e+001
